(0.000000) vcan0 1EE#1C2007D00000
(0.000000) vcan0 4F0#00000000000000
(0.000000) vcan0 1F4#00000000440000
(0.000000) vcan0 1E4#0000000000000000
(0.000000) vcan0 2E2#0000000000000000
(0.000000) vcan0 2E4#0000000000000000
(0.000000) vcan0 2E6#0000000000000000
(0.010000) vcan0 1EE#1C2E085D0100
(0.010000) vcan0 4F0#00000000000000
(0.010000) vcan0 1F4#00000000440100
(0.010000) vcan0 1E4#0000000000030100
(0.010000) vcan0 2E2#0000000000000100
(0.010000) vcan0 2E4#000E000700000100
(0.010000) vcan0 2E6#000E000700000100
(0.020000) vcan0 1EE#1C3C085D0200
(0.020000) vcan0 4F0#00000000000000
(0.020000) vcan0 1F4#00000000440200
(0.020000) vcan0 1E4#0000000000070200
(0.020000) vcan0 2E2#0000000000000200
(0.020000) vcan0 2E4#001A000E00000200
(0.020000) vcan0 2E6#001C000E00000200
(0.030000) vcan0 1EE#1C4A085D0300
(0.030000) vcan0 4F0#00000000000000
(0.030000) vcan0 1F4#00000000440300
(0.030000) vcan0 1E4#00000000000A0300
(0.030000) vcan0 2E2#0000000000000300
(0.030000) vcan0 2E4#002A001500000300
(0.030000) vcan0 2E6#002A001500000300
(0.040000) vcan0 1EE#1C59085D0400
(0.040000) vcan0 4F0#02000000000000
(0.040000) vcan0 1F4#00000000440400
(0.040000) vcan0 1E4#00000000000E0400
(0.040000) vcan0 2E2#0000000000000400
(0.040000) vcan0 2E4#0036001B00000400
(0.040000) vcan0 2E6#0038001B00000400
(0.050000) vcan0 1EE#1C67085D0500
(0.050000) vcan0 4F0#02000000000000
(0.050000) vcan0 1F4#00000000440500
(0.050000) vcan0 1E4#0000000000110500
(0.050000) vcan0 2E2#0000000000000500
(0.050000) vcan0 2E4#0048002200000500
(0.050000) vcan0 2E6#0044002200000500
(0.060000) vcan0 1EE#1C75085D0600
(0.060000) vcan0 4F0#02000000000000
(0.060000) vcan0 1F4#00000000440600
(0.060000) vcan0 1E4#0000000000150600
(0.060000) vcan0 2E2#0000000000000600
(0.060000) vcan0 2E4#0054002800000600
(0.060000) vcan0 2E6#0050002B00000600
(0.070000) vcan0 1EE#1C83085D0700
(0.070000) vcan0 4F0#02000000000000
(0.070000) vcan0 1F4#00000000440700
(0.070000) vcan0 1E4#0000000000180700
(0.070000) vcan0 2E2#0000000000000700
(0.070000) vcan0 2E4#0060002E00000700
(0.070000) vcan0 2E6#005E003200000700
(0.080000) vcan0 1EE#1C91085C0800
(0.080000) vcan0 4F0#02000000000000
(0.080000) vcan0 1F4#00000000440800
(0.080000) vcan0 1E4#00000000001C0800
(0.080000) vcan0 2E2#0000000000000800
(0.080000) vcan0 2E4#006C003900000800
(0.080000) vcan0 2E6#0072003700000800
(0.090000) vcan0 1EE#1C9F085C0900
(0.090000) vcan0 4F0#02000000000000
(0.090000) vcan0 1F4#00000000440900
(0.090000) vcan0 1E4#00000000001F0900
(0.090000) vcan0 2E2#0000000000000900
(0.090000) vcan0 2E4#007C003F00000900
(0.090000) vcan0 2E6#0076003F00000900
(0.100000) vcan0 1EE#1CAD085C0A00
(0.100000) vcan0 4F0#02000000000000
(0.100000) vcan0 1F4#00000000440A00
(0.100000) vcan0 1E4#0000000000220A00
(0.100000) vcan0 2E2#0000000000000A00
(0.100000) vcan0 2E4#008C004400000A00
(0.100000) vcan0 2E6#0090004500000A00
(0.110000) vcan0 1EE#1CBB085B0B00
(0.110000) vcan0 4F0#02000000000000
(0.110000) vcan0 1F4#00000000440B00
(0.110000) vcan0 1E4#0000000000260B00
(0.110000) vcan0 2E2#0000000000000B00
(0.110000) vcan0 2E4#0096004900000B00
(0.110000) vcan0 2E6#0098004C00000B00
(0.120000) vcan0 1EE#1CC9085B0C00
(0.120000) vcan0 4F0#02000000000000
(0.120000) vcan0 1F4#00000000440C00
(0.120000) vcan0 1E4#0000000000290C00
(0.120000) vcan0 2E2#0000000000000C00
(0.120000) vcan0 2E4#00A8004F00000C00
(0.120000) vcan0 2E6#00A0005500000C00
(0.130000) vcan0 1EE#1CD7085B0D00
(0.130000) vcan0 4F0#02000000000000
(0.130000) vcan0 1F4#00000000440D00
(0.130000) vcan0 1E4#00000000002D0D00
(0.130000) vcan0 2E2#0000000000000D00
(0.130000) vcan0 2E4#00AC005A00000D00
(0.130000) vcan0 2E6#00B0005A00000D00
(0.140000) vcan0 1EE#1CE4085A0E00
(0.140000) vcan0 4F0#02000000000000
(0.140000) vcan0 1F4#00000000440E00
(0.140000) vcan0 1E4#0000000000300E00
(0.140000) vcan0 2E2#0000000000000E00
(0.140000) vcan0 2E4#00C4006400000E00
(0.140000) vcan0 2E6#00C4006100000E00
(0.150000) vcan0 1EE#1CF2085A0F00
(0.150000) vcan0 4F0#02000000000000
(0.150000) vcan0 1F4#00000000440F00
(0.150000) vcan0 1E4#0000000000340F00
(0.150000) vcan0 2E2#0000000000000F00
(0.150000) vcan0 2E4#00CA006900000F00
(0.150000) vcan0 2E6#00D4006B00000F00
(0.160000) vcan0 1EE#1D0008590000
(0.160000) vcan0 4F0#02000000000000
(0.160000) vcan0 1F4#00000000440000
(0.160000) vcan0 1E4#0000000000370000
(0.160000) vcan0 2E2#0000000000000000
(0.160000) vcan0 2E4#00E4006C00000000
(0.160000) vcan0 2E6#00E6006C00000000
(0.170000) vcan0 1EE#1D0D08590100
(0.170000) vcan0 4F0#02000000000000
(0.170000) vcan0 1F4#00000000440100
(0.170000) vcan0 1E4#00000000003B0100
(0.170000) vcan0 2E2#0000000000000100
(0.170000) vcan0 2E4#00EE007500000100
(0.170000) vcan0 2E6#00E6007900000100
(0.180000) vcan0 1EE#1D1B08580200
(0.180000) vcan0 4F0#02000000000000
(0.180000) vcan0 1F4#00000000440200
(0.180000) vcan0 1E4#00000000003E0200
(0.180000) vcan0 2E2#0000000000000200
(0.180000) vcan0 2E4#00FA007900000200
(0.180000) vcan0 2E6#00F2008000000200
(0.190000) vcan0 1EE#1D2908570300
(0.190000) vcan0 4F0#02000000000000
(0.190000) vcan0 1F4#00000000440300
(0.190000) vcan0 1E4#0000000000420300
(0.190000) vcan0 2E2#0000000000000300
(0.190000) vcan0 2E4#00FE008500000300
(0.190000) vcan0 2E6#00FA008600000300
(0.200000) vcan0 1EE#1D3608570400
(0.200000) vcan0 4F0#02000000000000
(0.200000) vcan0 1F4#00000000440400
(0.200000) vcan0 1E4#0000000000450400
(0.200000) vcan0 2E2#0000000000000400
(0.200000) vcan0 2E4#010A008400000400
(0.200000) vcan0 2E6#0118008600000400
(0.210000) vcan0 1EE#1D4408560500
(0.210000) vcan0 4F0#02000000000000
(0.210000) vcan0 1F4#00000000440500
(0.210000) vcan0 1E4#0000000000480500
(0.210000) vcan0 2E2#0000000000000500
(0.210000) vcan0 2E4#0118009300000500
(0.210000) vcan0 2E6#0114009600000500
(0.220000) vcan0 1EE#1D5108550600
(0.220000) vcan0 4F0#02000000000000
(0.220000) vcan0 1F4#00000000440600
(0.220000) vcan0 1E4#00000000004C0600
(0.220000) vcan0 2E2#0000000000000600
(0.220000) vcan0 2E4#0126009600000600
(0.220000) vcan0 2E6#013E009800000600
(0.230000) vcan0 1EE#1D5E08550700
(0.230000) vcan0 4F0#02000000000000
(0.230000) vcan0 1F4#00000000440700
(0.230000) vcan0 1E4#00000000004F0700
(0.230000) vcan0 2E2#0000000000000700
(0.230000) vcan0 2E4#014000A200000700
(0.230000) vcan0 2E6#012E009800000700
(0.240000) vcan0 1EE#1D6B08540800
(0.240000) vcan0 4F0#02000000000000
(0.240000) vcan0 1F4#00000000440800
(0.240000) vcan0 1E4#0000000000530800
(0.240000) vcan0 2E2#0000000000000800
(0.240000) vcan0 2E4#015400AD00000800
(0.240000) vcan0 2E6#014600A400000800
(0.250000) vcan0 1EE#1D7808530900
(0.250000) vcan0 4F0#02000000000000
(0.250000) vcan0 1F4#00000000440900
(0.250000) vcan0 1E4#0000000000560900
(0.250000) vcan0 2E2#0000000000000900
(0.250000) vcan0 2E4#014E00AE00000900
(0.250000) vcan0 2E6#014800A500000900
(0.260000) vcan0 1EE#1D8508520A00
(0.260000) vcan0 4F0#02000000000000
(0.260000) vcan0 1F4#00000000440A00
(0.260000) vcan0 1E4#00000000005A0A00
(0.260000) vcan0 2E2#0000000000000A00
(0.260000) vcan0 2E4#016A00B100000A00
(0.260000) vcan0 2E6#017400B200000A00
(0.270000) vcan0 1EE#1D9208510B00
(0.270000) vcan0 4F0#02000000000000
(0.270000) vcan0 1F4#00000000440B00
(0.270000) vcan0 1E4#00000000005D0B00
(0.270000) vcan0 2E2#0000000000000B00
(0.270000) vcan0 2E4#017C00BF00000B00
(0.270000) vcan0 2E6#016E00C200000B00
(0.280000) vcan0 1EE#1D9F08500C00
(0.280000) vcan0 4F0#02000000000000
(0.280000) vcan0 1F4#00000000440C00
(0.280000) vcan0 1E4#0000000000610C00
(0.280000) vcan0 2E2#0000000000000C00
(0.280000) vcan0 2E4#017C00BF00000C00
(0.280000) vcan0 2E6#017800BE00000C00
(0.290000) vcan0 1EE#1DAC084F0D00
(0.290000) vcan0 4F0#02000000000000
(0.290000) vcan0 1F4#00000000440D00
(0.290000) vcan0 1E4#0000000000640D00
(0.290000) vcan0 2E2#0000000000000D00
(0.290000) vcan0 2E4#019C00D000000D00
(0.290000) vcan0 2E6#018A00CD00000D00
(0.300000) vcan0 1EE#1DB9084E0E00
(0.300000) vcan0 4F0#02000000000000
(0.300000) vcan0 1F4#00000000440E00
(0.300000) vcan0 1E4#0000000000670E00
(0.300000) vcan0 2E2#0000000000000E00
(0.300000) vcan0 2E4#01AE00D200000E00
(0.300000) vcan0 2E6#01B000C700000E00
(0.310000) vcan0 1EE#1DC5084D0F00
(0.310000) vcan0 4F0#02000000000000
(0.310000) vcan0 1F4#00000000440F00
(0.310000) vcan0 1E4#00000000006B0F00
(0.310000) vcan0 2E2#0000000000000F00
(0.310000) vcan0 2E4#019600D100000F00
(0.310000) vcan0 2E6#01B400D400000F00
(0.320000) vcan0 1EE#1DD2084C0000
(0.320000) vcan0 4F0#02000000000000
(0.320000) vcan0 1F4#00000000440000
(0.320000) vcan0 1E4#00000000006E0000
(0.320000) vcan0 2E2#0000000000000000
(0.320000) vcan0 2E4#01AC00DF00000000
(0.320000) vcan0 2E6#01B600D500000000
(0.330000) vcan0 1EE#1DDE084B0100
(0.330000) vcan0 4F0#02000000000000
(0.330000) vcan0 1F4#00000000440100
(0.330000) vcan0 1E4#0000000000720100
(0.330000) vcan0 2E2#0000000000000100
(0.330000) vcan0 2E4#01DA00DB00000100
(0.330000) vcan0 2E6#01C200EA00000100
(0.340000) vcan0 1EE#1DEA084A0200
(0.340000) vcan0 4F0#02000000000000
(0.340000) vcan0 1F4#00000000440200
(0.340000) vcan0 1E4#0000000000750200
(0.340000) vcan0 2E2#0000000000000200
(0.340000) vcan0 2E4#01D400F300000200
(0.340000) vcan0 2E6#01C000ED00000200
(0.350000) vcan0 1EE#1DF608490300
(0.350000) vcan0 4F0#02000000000000
(0.350000) vcan0 1F4#00000000440300
(0.350000) vcan0 1E4#0000000000790300
(0.350000) vcan0 2E2#0000000000000300
(0.350000) vcan0 2E4#01F400F400000300
(0.350000) vcan0 2E6#01FA00E600000300
(0.360000) vcan0 1EE#1E0208480400
(0.360000) vcan0 4F0#02000000000000
(0.360000) vcan0 1F4#00000000440400
(0.360000) vcan0 1E4#00000000007C0400
(0.360000) vcan0 2E2#0000000000000400
(0.360000) vcan0 2E4#020200F900000400
(0.360000) vcan0 2E6#020400F000000400
(0.370000) vcan0 1EE#1E0E08470500
(0.370000) vcan0 4F0#02000000000000
(0.370000) vcan0 1F4#00000000440500
(0.370000) vcan0 1E4#0000000000800500
(0.370000) vcan0 2E2#0000000000000500
(0.370000) vcan0 2E4#01F6010000000500
(0.370000) vcan0 2E6#020C00F500000500
(0.380000) vcan0 1EE#1E1A08460600
(0.380000) vcan0 4F0#02000000000000
(0.380000) vcan0 1F4#00000000440600
(0.380000) vcan0 1E4#0000000000830600
(0.380000) vcan0 2E2#0000000000000600
(0.380000) vcan0 2E4#0214011300000600
(0.380000) vcan0 2E6#021600FB00000600
(0.390000) vcan0 1EE#1E2608440700
(0.390000) vcan0 4F0#02000000000000
(0.390000) vcan0 1F4#00000000440700
(0.390000) vcan0 1E4#0000000000860700
(0.390000) vcan0 2E2#0000000000000700
(0.390000) vcan0 2E4#021E011700000700
(0.390000) vcan0 2E6#0210010D00000700
(0.400000) vcan0 1EE#1E3108430800
(0.400000) vcan0 4F0#02000000000000
(0.400000) vcan0 1F4#00000000440800
(0.400000) vcan0 1E4#00000000008A0800
(0.400000) vcan0 2E2#0000000000000800
(0.400000) vcan0 2E4#022A010C00000800
(0.400000) vcan0 2E6#0226010900000800
(0.410000) vcan0 1EE#1E3C08420900
(0.410000) vcan0 4F0#02000000000000
(0.410000) vcan0 1F4#00000000440900
(0.410000) vcan0 1E4#00000000008D0900
(0.410000) vcan0 2E2#0000000000000900
(0.410000) vcan0 2E4#0228011300000900
(0.410000) vcan0 2E6#0226011000000900
(0.420000) vcan0 1EE#1E4808400A00
(0.420000) vcan0 4F0#02000000000000
(0.420000) vcan0 1F4#00000000440A00
(0.420000) vcan0 1E4#0000000000910A00
(0.420000) vcan0 2E2#0000000000000A00
(0.420000) vcan0 2E4#022A011F00000A00
(0.420000) vcan0 2E6#024E012700000A00
(0.430000) vcan0 1EE#1E53083F0B00
(0.430000) vcan0 4F0#02000000000000
(0.430000) vcan0 1F4#00000000440B00
(0.430000) vcan0 1E4#0000000000940B00
(0.430000) vcan0 2E2#0000000000000B00
(0.430000) vcan0 2E4#0248012F00000B00
(0.430000) vcan0 2E6#0268012F00000B00
(0.440000) vcan0 1EE#1E5E083E0C00
(0.440000) vcan0 4F0#02000000000000
(0.440000) vcan0 1F4#00000000440C00
(0.440000) vcan0 1E4#0000000000980C00
(0.440000) vcan0 2E2#0000000000000C00
(0.440000) vcan0 2E4#025A013800000C00
(0.440000) vcan0 2E6#0250013600000C00
(0.450000) vcan0 1EE#1E69083C0D00
(0.450000) vcan0 4F0#02000000000000
(0.450000) vcan0 1F4#00000000440D00
(0.450000) vcan0 1E4#00000000009B0D00
(0.450000) vcan0 2E2#0000000000000D00
(0.450000) vcan0 2E4#0266013600000D00
(0.450000) vcan0 2E6#0256013300000D00
(0.460000) vcan0 1EE#1E73083B0E00
(0.460000) vcan0 4F0#02000000000000
(0.460000) vcan0 1F4#00000000440E00
(0.460000) vcan0 1E4#00000000009F0E00
(0.460000) vcan0 2E2#0000000000000E00
(0.460000) vcan0 2E4#028A013B00000E00
(0.460000) vcan0 2E6#0276013E00000E00
(0.470000) vcan0 1EE#1E7E08390F00
(0.470000) vcan0 4F0#02000000000000
(0.470000) vcan0 1F4#00000000440F00
(0.470000) vcan0 1E4#0000000000A20F00
(0.470000) vcan0 2E2#0000000000000F00
(0.470000) vcan0 2E4#0282013800000F00
(0.470000) vcan0 2E6#027C014E00000F00
(0.480000) vcan0 1EE#1E8808380000
(0.480000) vcan0 4F0#02000000000000
(0.480000) vcan0 1F4#00000000440000
(0.480000) vcan0 1E4#0000000000A60000
(0.480000) vcan0 2E2#0000000000000000
(0.480000) vcan0 2E4#028C015500000000
(0.480000) vcan0 2E6#0282015400000000
(0.490000) vcan0 1EE#1E9208360100
(0.490000) vcan0 4F0#02000000000000
(0.490000) vcan0 1F4#00000000440100
(0.490000) vcan0 1E4#0000000000A90100
(0.490000) vcan0 2E2#0000000000000100
(0.490000) vcan0 2E4#028C015E00000100
(0.490000) vcan0 2E6#02C0015900000100
(0.500000) vcan0 1EE#1E9C08350200
(0.500000) vcan0 4F0#02000000000000
(0.500000) vcan0 1F4#00000000440200
(0.500000) vcan0 1E4#0000000000AC0200
(0.500000) vcan0 2E2#0000000000000200
(0.500000) vcan0 2E4#029A016700000200
(0.500000) vcan0 2E6#0298016900000200
(0.510000) vcan0 1EE#1EA608330300
(0.510000) vcan0 4F0#02000000000000
(0.510000) vcan0 1F4#00000000440300
(0.510000) vcan0 1E4#0000000000B00300
(0.510000) vcan0 2E2#0000000000000300
(0.510000) vcan0 2E4#02AE015E00000300
(0.510000) vcan0 2E6#02B8015D00000300
(0.520000) vcan0 1EE#1EB008320400
(0.520000) vcan0 4F0#02000000000000
(0.520000) vcan0 1F4#00000000440400
(0.520000) vcan0 1E4#0000000000B30400
(0.520000) vcan0 2E2#0000000000000400
(0.520000) vcan0 2E4#02BA017800000400
(0.520000) vcan0 2E6#02C8017500000400
(0.530000) vcan0 1EE#1EBA08300500
(0.530000) vcan0 4F0#02000000000000
(0.530000) vcan0 1F4#00000000440500
(0.530000) vcan0 1E4#0000000000B70500
(0.530000) vcan0 2E2#0000000000000500
(0.530000) vcan0 2E4#02F8016A00000500
(0.530000) vcan0 2E6#02DE017100000500
(0.540000) vcan0 1EE#1EC3082E0600
(0.540000) vcan0 4F0#02000000000000
(0.540000) vcan0 1F4#00000000440600
(0.540000) vcan0 1E4#0000000000BA0600
(0.540000) vcan0 2E2#0000000000000600
(0.540000) vcan0 2E4#02D6017500000600
(0.540000) vcan0 2E6#02CC017200000600
(0.550000) vcan0 1EE#1ECC082D0700
(0.550000) vcan0 4F0#02000000000000
(0.550000) vcan0 1F4#00000000440700
(0.550000) vcan0 1E4#0000000000BE0700
(0.550000) vcan0 2E2#0000000000000700
(0.550000) vcan0 2E4#030A018400000700
(0.550000) vcan0 2E6#02FE018200000700
(0.560000) vcan0 1EE#1ED5082B0800
(0.560000) vcan0 4F0#02000000000000
(0.560000) vcan0 1F4#00000000440800
(0.560000) vcan0 1E4#0000000000C10800
(0.560000) vcan0 2E2#0000000000000800
(0.560000) vcan0 2E4#02E8018200000800
(0.560000) vcan0 2E6#0302018200000800
(0.570000) vcan0 1EE#1EDE08290900
(0.570000) vcan0 4F0#02000000000000
(0.570000) vcan0 1F4#00000000440900
(0.570000) vcan0 1E4#0000000000C50900
(0.570000) vcan0 2E2#0000000000000900
(0.570000) vcan0 2E4#0306018100000900
(0.570000) vcan0 2E6#02FE019800000900
(0.580000) vcan0 1EE#1EE708280A00
(0.580000) vcan0 4F0#02000000000000
(0.580000) vcan0 1F4#00000000440A00
(0.580000) vcan0 1E4#0000000000C80A00
(0.580000) vcan0 2E2#0000000000000A00
(0.580000) vcan0 2E4#0336018A00000A00
(0.580000) vcan0 2E6#033C019C00000A00
(0.590000) vcan0 1EE#1EF008260B00
(0.590000) vcan0 4F0#02000000000000
(0.590000) vcan0 1F4#00000000440B00
(0.590000) vcan0 1E4#0000000000CB0B00
(0.590000) vcan0 2E2#0000000000000B00
(0.590000) vcan0 2E4#0342019D00000B00
(0.590000) vcan0 2E6#035401A800000B00
(0.600000) vcan0 1EE#1EF808240C00
(0.600000) vcan0 4F0#02000000000000
(0.600000) vcan0 1F4#00000000440C00
(0.600000) vcan0 1E4#0000000000CF0C00
(0.600000) vcan0 2E2#0000000000000C00
(0.600000) vcan0 2E4#0314019200000C00
(0.600000) vcan0 2E6#034801A800000C00
(0.610000) vcan0 1EE#1F0008220D00
(0.610000) vcan0 4F0#02000000000000
(0.610000) vcan0 1F4#00000000440D00
(0.610000) vcan0 1E4#0000000000D20D00
(0.610000) vcan0 2E2#0000000000000D00
(0.610000) vcan0 2E4#0350019600000D00
(0.610000) vcan0 2E6#032201B600000D00
(0.620000) vcan0 1EE#1F0808200E00
(0.620000) vcan0 4F0#02000000000000
(0.620000) vcan0 1F4#00000000440E00
(0.620000) vcan0 1E4#0000000000D60E00
(0.620000) vcan0 2E2#0000000000000E00
(0.620000) vcan0 2E4#0376019600000E00
(0.620000) vcan0 2E6#034001BA00000E00
(0.630000) vcan0 1EE#1F10081F0F00
(0.630000) vcan0 4F0#02000000000000
(0.630000) vcan0 1F4#00000000440F00
(0.630000) vcan0 1E4#0000000000D90F00
(0.630000) vcan0 2E2#0000000000000F00
(0.630000) vcan0 2E4#036A01A200000F00
(0.630000) vcan0 2E6#0346019D00000F00
(0.640000) vcan0 1EE#1F18081D0000
(0.640000) vcan0 4F0#02000000000000
(0.640000) vcan0 1F4#00000000440000
(0.640000) vcan0 1E4#0000000000DD0000
(0.640000) vcan0 2E2#0000000000000000
(0.640000) vcan0 2E4#036C01C600000000
(0.640000) vcan0 2E6#038C01C500000000
(0.650000) vcan0 1EE#1F1F081B0100
(0.650000) vcan0 4F0#02000000000000
(0.650000) vcan0 1F4#00000000440100
(0.650000) vcan0 1E4#0000000000E00100
(0.650000) vcan0 2E2#0000000000000100
(0.650000) vcan0 2E4#035A01D600000100
(0.650000) vcan0 2E6#038401B500000100
(0.660000) vcan0 1EE#1F2708190200
(0.660000) vcan0 4F0#02000000000000
(0.660000) vcan0 1F4#00000000440200
(0.660000) vcan0 1E4#0000000000E40200
(0.660000) vcan0 2E2#0000000000000200
(0.660000) vcan0 2E4#039201B400000200
(0.660000) vcan0 2E6#037201CE00000200
(0.670000) vcan0 1EE#1F2E08170300
(0.670000) vcan0 4F0#02000000000000
(0.670000) vcan0 1F4#00000000440300
(0.670000) vcan0 1E4#0000000000E70300
(0.670000) vcan0 2E2#0000000000000300
(0.670000) vcan0 2E4#03A401BF00000300
(0.670000) vcan0 2E6#037401BD00000300
(0.680000) vcan0 1EE#1F3508150400
(0.680000) vcan0 4F0#02000000000000
(0.680000) vcan0 1F4#00000000440400
(0.680000) vcan0 1E4#0000000000EA0400
(0.680000) vcan0 2E2#0000000000000400
(0.680000) vcan0 2E4#039601D800000400
(0.680000) vcan0 2E6#03AC01D600000400
(0.690000) vcan0 1EE#1F3B08130500
(0.690000) vcan0 4F0#02000000000000
(0.690000) vcan0 1F4#00000000440500
(0.690000) vcan0 1E4#0000000000EE0500
(0.690000) vcan0 2E2#0000000000000500
(0.690000) vcan0 2E4#03B801D800000500
(0.690000) vcan0 2E6#039801D500000500
(0.700000) vcan0 1EE#1F4208110600
(0.700000) vcan0 4F0#02000000000000
(0.700000) vcan0 1F4#00000000440600
(0.700000) vcan0 1E4#0000000000F10600
(0.700000) vcan0 2E2#0000000000000600
(0.700000) vcan0 2E4#039C01DB00000600
(0.700000) vcan0 2E6#03DC01F300000600
(0.710000) vcan0 1EE#1F48080F0700
(0.710000) vcan0 4F0#02000000000000
(0.710000) vcan0 1F4#00000000440700
(0.710000) vcan0 1E4#0000000000F50700
(0.710000) vcan0 2E2#0000000000000700
(0.710000) vcan0 2E4#03C001ED00000700
(0.710000) vcan0 2E6#03BC01FE00000700
(0.720000) vcan0 1EE#1F4E080D0800
(0.720000) vcan0 4F0#02000000000000
(0.720000) vcan0 1F4#00000000440800
(0.720000) vcan0 1E4#0000000000F80800
(0.720000) vcan0 2E2#0000000000000800
(0.720000) vcan0 2E4#03DA01EF00000800
(0.720000) vcan0 2E6#03CC01E100000800
(0.730000) vcan0 1EE#1F54080B0900
(0.730000) vcan0 4F0#02000000000000
(0.730000) vcan0 1F4#00000000440900
(0.730000) vcan0 1E4#0000000000FC0900
(0.730000) vcan0 2E2#0000000000000900
(0.730000) vcan0 2E4#03D401E100000900
(0.730000) vcan0 2E6#03C601F100000900
(0.740000) vcan0 1EE#1F5A08090A00
(0.740000) vcan0 4F0#02000000000000
(0.740000) vcan0 1F4#00000000440A00
(0.740000) vcan0 1E4#0000000000FF0A00
(0.740000) vcan0 2E2#0000000000000A00
(0.740000) vcan0 2E4#040201EE00000A00
(0.740000) vcan0 2E6#0410021500000A00
(0.750000) vcan0 1EE#1F5F08070B00
(0.750000) vcan0 4F0#02000000000000
(0.750000) vcan0 1F4#00000000440B00
(0.750000) vcan0 1E4#0000000001030B00
(0.750000) vcan0 2E2#0000000000000B00
(0.750000) vcan0 2E4#0402020300000B00
(0.750000) vcan0 2E6#03F0021000000B00
(0.760000) vcan0 1EE#1F6508050C00
(0.760000) vcan0 4F0#02000000000000
(0.760000) vcan0 1F4#00000000440C00
(0.760000) vcan0 1E4#0000000001060C00
(0.760000) vcan0 2E2#0000000000000C00
(0.760000) vcan0 2E4#040C021300000C00
(0.760000) vcan0 2E6#0446021F00000C00
(0.770000) vcan0 1EE#1F6A08030D00
(0.770000) vcan0 4F0#02000000000000
(0.770000) vcan0 1F4#00000000440D00
(0.770000) vcan0 1E4#00000000010A0D00
(0.770000) vcan0 2E2#0000000000000D00
(0.770000) vcan0 2E4#043A022400000D00
(0.770000) vcan0 2E6#041001F900000D00
(0.780000) vcan0 1EE#1F6F08010E00
(0.780000) vcan0 4F0#02000000000000
(0.780000) vcan0 1F4#00000000440E00
(0.780000) vcan0 1E4#00000000010D0E00
(0.780000) vcan0 2E2#0000000000000E00
(0.780000) vcan0 2E4#0468022500000E00
(0.780000) vcan0 2E6#042E022E00000E00
(0.790000) vcan0 1EE#1F7307FF0F00
(0.790000) vcan0 4F0#02000000000000
(0.790000) vcan0 1F4#00000000440F00
(0.790000) vcan0 1E4#0000000001100F00
(0.790000) vcan0 2E2#0000000000000F00
(0.790000) vcan0 2E4#045E022F00000F00
(0.790000) vcan0 2E6#040E022600000F00
(0.800000) vcan0 1EE#1F7807FD0000
(0.800000) vcan0 4F0#02000000000000
(0.800000) vcan0 1F4#00000000440000
(0.800000) vcan0 1E4#0000000001140000
(0.800000) vcan0 2E2#0000000000000000
(0.800000) vcan0 2E4#0420021E00000000
(0.800000) vcan0 2E6#046A023700000000
(0.810000) vcan0 1EE#1F7C07FB0100
(0.810000) vcan0 4F0#02000000000000
(0.810000) vcan0 1F4#00000000440100
(0.810000) vcan0 1E4#0000000001170100
(0.810000) vcan0 2E2#0000000000000100
(0.810000) vcan0 2E4#0488023000000100
(0.810000) vcan0 2E6#0446023000000100
(0.820000) vcan0 1EE#1F8007F90200
(0.820000) vcan0 4F0#02000000000000
(0.820000) vcan0 1F4#00000000440200
(0.820000) vcan0 1E4#00000000011B0200
(0.820000) vcan0 2E2#0000000000000200
(0.820000) vcan0 2E4#0438025000000200
(0.820000) vcan0 2E6#049A022C00000200
(0.830000) vcan0 1EE#1F8407F60300
(0.830000) vcan0 4F0#02000000000000
(0.830000) vcan0 1F4#00000000440300
(0.830000) vcan0 1E4#00000000011E0300
(0.830000) vcan0 2E2#0000000000000300
(0.830000) vcan0 2E4#0440025000000300
(0.830000) vcan0 2E6#044A023C00000300
(0.840000) vcan0 1EE#1F8807F40400
(0.840000) vcan0 4F0#02000000000000
(0.840000) vcan0 1F4#00000000440400
(0.840000) vcan0 1E4#0000000001220400
(0.840000) vcan0 2E2#0000000000000400
(0.840000) vcan0 2E4#0484025B00000400
(0.840000) vcan0 2E6#0450024F00000400
(0.850000) vcan0 1EE#1F8B07F20500
(0.850000) vcan0 4F0#02000000000000
(0.850000) vcan0 1F4#00000000440500
(0.850000) vcan0 1E4#0000000001250500
(0.850000) vcan0 2E2#0000000000000500
(0.850000) vcan0 2E4#04A4024F00000500
(0.850000) vcan0 2E6#04BE025F00000500
(0.860000) vcan0 1EE#1F8E07F00600
(0.860000) vcan0 4F0#02000000000000
(0.860000) vcan0 1F4#00000000440600
(0.860000) vcan0 1E4#0000000001290600
(0.860000) vcan0 2E2#0000000000000600
(0.860000) vcan0 2E4#04A0025100000600
(0.860000) vcan0 2E6#0478025A00000600
(0.870000) vcan0 1EE#1F9107EE0700
(0.870000) vcan0 4F0#02000000000000
(0.870000) vcan0 1F4#00000000440700
(0.870000) vcan0 1E4#00000000012C0700
(0.870000) vcan0 2E2#0000000000000700
(0.870000) vcan0 2E4#0498025000000700
(0.870000) vcan0 2E6#04E0025A00000700
(0.880000) vcan0 1EE#1F9407EC0800
(0.880000) vcan0 4F0#02000000000000
(0.880000) vcan0 1F4#00000000440800
(0.880000) vcan0 1E4#00000000012F0800
(0.880000) vcan0 2E2#0000000000000800
(0.880000) vcan0 2E4#0490024C00000800
(0.880000) vcan0 2E6#04A8024600000800
(0.890000) vcan0 1EE#1F9707E90900
(0.890000) vcan0 4F0#02000000000000
(0.890000) vcan0 1F4#00000000440900
(0.890000) vcan0 1E4#0000000001330900
(0.890000) vcan0 2E2#0000000000000900
(0.890000) vcan0 2E4#04C8028200000900
(0.890000) vcan0 2E6#04A0026F00000900
(0.900000) vcan0 1EE#1F9907E70A00
(0.900000) vcan0 4F0#02000000000000
(0.900000) vcan0 1F4#00000000440A00
(0.900000) vcan0 1E4#0000000001360A00
(0.900000) vcan0 2E2#0000000000000A00
(0.900000) vcan0 2E4#04DA026900000A00
(0.900000) vcan0 2E6#050E027C00000A00
(0.910000) vcan0 1EE#1F9B07E50B00
(0.910000) vcan0 4F0#02000000000000
(0.910000) vcan0 1F4#00000000440B00
(0.910000) vcan0 1E4#00000000013A0B00
(0.910000) vcan0 2E2#0000000000000B00
(0.910000) vcan0 2E4#051E025700000B00
(0.910000) vcan0 2E6#0518025500000B00
(0.920000) vcan0 1EE#1F9D07E30C00
(0.920000) vcan0 4F0#02000000000000
(0.920000) vcan0 1F4#00000000440C00
(0.920000) vcan0 1E4#00000000013D0C00
(0.920000) vcan0 2E2#0000000000000C00
(0.920000) vcan0 2E4#04E6028900000C00
(0.920000) vcan0 2E6#051E028D00000C00
(0.930000) vcan0 1EE#1F9F07E10D00
(0.930000) vcan0 4F0#02000000000000
(0.930000) vcan0 1F4#00000000440D00
(0.930000) vcan0 1E4#0000000001410D00
(0.930000) vcan0 2E2#0000000000000D00
(0.930000) vcan0 2E4#050C028400000D00
(0.930000) vcan0 2E6#04E6028500000D00
(0.940000) vcan0 1EE#1FA007DE0E00
(0.940000) vcan0 4F0#02000000000000
(0.940000) vcan0 1F4#00000000440E00
(0.940000) vcan0 1E4#0000000001440E00
(0.940000) vcan0 2E2#0000000000000E00
(0.940000) vcan0 2E4#0544028A00000E00
(0.940000) vcan0 2E6#0502026A00000E00
(0.950000) vcan0 1EE#1FA107DC0F00
(0.950000) vcan0 4F0#02000000000000
(0.950000) vcan0 1F4#00000000440F00
(0.950000) vcan0 1E4#0000000001480F00
(0.950000) vcan0 2E2#0000000000000F00
(0.950000) vcan0 2E4#055E028A00000F00
(0.950000) vcan0 2E6#051C02AF00000F00
(0.960000) vcan0 1EE#1FA207DA0000
(0.960000) vcan0 4F0#02000000000000
(0.960000) vcan0 1F4#00000000440000
(0.960000) vcan0 1E4#00000000014B0000
(0.960000) vcan0 2E2#0000000000000000
(0.960000) vcan0 2E4#0512029400000000
(0.960000) vcan0 2E6#050E02A800000000
(0.970000) vcan0 1EE#1FA307D80100
(0.970000) vcan0 4F0#02000000000000
(0.970000) vcan0 1F4#00000000440100
(0.970000) vcan0 1E4#00000000014E0100
(0.970000) vcan0 2E2#0000000000000100
(0.970000) vcan0 2E4#0552028600000100
(0.970000) vcan0 2E6#056E028400000100
(0.980000) vcan0 1EE#1FA407D60200
(0.980000) vcan0 4F0#02000000000000
(0.980000) vcan0 1F4#00000000440200
(0.980000) vcan0 1E4#0000000001520200
(0.980000) vcan0 2E2#0000000000000200
(0.980000) vcan0 2E4#051C02B800000200
(0.980000) vcan0 2E6#0536029000000200
(0.990000) vcan0 1EE#1FA407D30300
(0.990000) vcan0 4F0#02000000000000
(0.990000) vcan0 1F4#00000000440300
(0.990000) vcan0 1E4#0000000001550300
(0.990000) vcan0 2E2#0000000000000300
(0.990000) vcan0 2E4#056C02AA00000300
(0.990000) vcan0 2E6#055C02B800000300
(1.000000) vcan0 1EE#1FA407D10400
(1.000000) vcan0 4F0#02000000000000
(1.000000) vcan0 1F4#00000000440400
(1.000000) vcan0 1E4#0000000001590400
(1.000000) vcan0 2E2#0000000000000400
(1.000000) vcan0 2E4#052402AC00000400
(1.000000) vcan0 2E6#052802A000000400
(1.010000) vcan0 1EE#1FA407CF0500
(1.010000) vcan0 4F0#02000000000000
(1.010000) vcan0 1F4#00000000440500
(1.010000) vcan0 1E4#00000000015C0500
(1.010000) vcan0 2E2#0000000000000500
(1.010000) vcan0 2E4#0572029900000500
(1.010000) vcan0 2E6#053802D000000500
(1.020000) vcan0 1EE#1FA407CD0600
(1.020000) vcan0 4F0#02000000000000
(1.020000) vcan0 1F4#00000000440600
(1.020000) vcan0 1E4#0000000001600600
(1.020000) vcan0 2E2#0000000000000600
(1.020000) vcan0 2E4#054002A100000600
(1.020000) vcan0 2E6#056202CD00000600
(1.030000) vcan0 1EE#1FA307CA0700
(1.030000) vcan0 4F0#02000000000000
(1.030000) vcan0 1F4#00000000440700
(1.030000) vcan0 1E4#0000000001630700
(1.030000) vcan0 2E2#0000000000000700
(1.030000) vcan0 2E4#057A02B500000700
(1.030000) vcan0 2E6#05AC02B900000700
(1.040000) vcan0 1EE#1FA207C80800
(1.040000) vcan0 4F0#02000000000000
(1.040000) vcan0 1F4#00000000440800
(1.040000) vcan0 1E4#0000000001670800
(1.040000) vcan0 2E2#0000000000000800
(1.040000) vcan0 2E4#05CC02EE00000800
(1.040000) vcan0 2E6#05C602DC00000800
(1.050000) vcan0 1EE#1FA107C60900
(1.050000) vcan0 4F0#02000000000000
(1.050000) vcan0 1F4#00000000440900
(1.050000) vcan0 1E4#00000000016A0900
(1.050000) vcan0 2E2#0000000000000900
(1.050000) vcan0 2E4#05D602C400000900
(1.050000) vcan0 2E6#057402B400000900
(1.060000) vcan0 1EE#1FA007C40A00
(1.060000) vcan0 4F0#02000000000000
(1.060000) vcan0 1F4#00000000440A00
(1.060000) vcan0 1E4#00000000016E0A00
(1.060000) vcan0 2E2#0000000000000A00
(1.060000) vcan0 2E4#058202EA00000A00
(1.060000) vcan0 2E6#05CC02E600000A00
(1.070000) vcan0 1EE#1F9F07C20B00
(1.070000) vcan0 4F0#02000000000000
(1.070000) vcan0 1F4#00000000440B00
(1.070000) vcan0 1E4#0000000001710B00
(1.070000) vcan0 2E2#0000000000000B00
(1.070000) vcan0 2E4#058202F600000B00
(1.070000) vcan0 2E6#05FC02DC00000B00
(1.080000) vcan0 1EE#1F9D07BF0C00
(1.080000) vcan0 4F0#02000000000000
(1.080000) vcan0 1F4#00000000440C00
(1.080000) vcan0 1E4#0000000001740C00
(1.080000) vcan0 2E2#0000000000000C00
(1.080000) vcan0 2E4#05F2030800000C00
(1.080000) vcan0 2E6#061202CB00000C00
(1.090000) vcan0 1EE#1F9B07BD0D00
(1.090000) vcan0 4F0#02000000000000
(1.090000) vcan0 1F4#00000000440D00
(1.090000) vcan0 1E4#0000000001780D00
(1.090000) vcan0 2E2#0000000000000D00
(1.090000) vcan0 2E4#062602F000000D00
(1.090000) vcan0 2E6#059E02FC00000D00
(1.100000) vcan0 1EE#1F9907BB0E00
(1.100000) vcan0 4F0#02000000000000
(1.100000) vcan0 1F4#00000000440E00
(1.100000) vcan0 1E4#00000000017B0E00
(1.100000) vcan0 2E2#0000000000000E00
(1.100000) vcan0 2E4#062E02D800000E00
(1.100000) vcan0 2E6#060C030A00000E00
(1.110000) vcan0 1EE#1F9707B90F00
(1.110000) vcan0 4F0#02000000000000
(1.110000) vcan0 1F4#00000000440F00
(1.110000) vcan0 1E4#00000000017F0F00
(1.110000) vcan0 2E2#0000000000000F00
(1.110000) vcan0 2E4#062202EA00000F00
(1.110000) vcan0 2E6#063E02E300000F00
(1.120000) vcan0 1EE#1F9407B70000
(1.120000) vcan0 4F0#02000000000000
(1.120000) vcan0 1F4#00000000440000
(1.120000) vcan0 1E4#0000000001820000
(1.120000) vcan0 2E2#0000000000000000
(1.120000) vcan0 2E4#063602F500000000
(1.120000) vcan0 2E6#0634031300000000
(1.130000) vcan0 1EE#1F9107B40100
(1.130000) vcan0 4F0#02000000000000
(1.130000) vcan0 1F4#00000000440100
(1.130000) vcan0 1E4#0000000001860100
(1.130000) vcan0 2E2#0000000000000100
(1.130000) vcan0 2E4#05EC02F200000100
(1.130000) vcan0 2E6#05FC030800000100
(1.140000) vcan0 1EE#1F8E07B20200
(1.140000) vcan0 4F0#02000000000000
(1.140000) vcan0 1F4#00000000440200
(1.140000) vcan0 1E4#0000000001890200
(1.140000) vcan0 2E2#0000000000000200
(1.140000) vcan0 2E4#0616030300000200
(1.140000) vcan0 2E6#0600031100000200
(1.150000) vcan0 1EE#1F8B07B00300
(1.150000) vcan0 4F0#02000000000000
(1.150000) vcan0 1F4#00000000440300
(1.150000) vcan0 1E4#00000000018D0300
(1.150000) vcan0 2E2#0000000000000300
(1.150000) vcan0 2E4#060402FB00000300
(1.150000) vcan0 2E6#0654033200000300
(1.160000) vcan0 1EE#1F8807AE0400
(1.160000) vcan0 4F0#02000000000000
(1.160000) vcan0 1F4#00000000440400
(1.160000) vcan0 1E4#0000000001900400
(1.160000) vcan0 2E2#0000000000000400
(1.160000) vcan0 2E4#0652032500000400
(1.160000) vcan0 2E6#0688034800000400
(1.170000) vcan0 1EE#1F8407AC0500
(1.170000) vcan0 4F0#02000000000000
(1.170000) vcan0 1F4#00000000440500
(1.170000) vcan0 1E4#0000000001930500
(1.170000) vcan0 2E2#0000000000000500
(1.170000) vcan0 2E4#0604034600000500
(1.170000) vcan0 2E6#0636031000000500
(1.180000) vcan0 1EE#1F8007AA0600
(1.180000) vcan0 4F0#02000000000000
(1.180000) vcan0 1F4#00000000440600
(1.180000) vcan0 1E4#0000000001970600
(1.180000) vcan0 2E2#0000000000000600
(1.180000) vcan0 2E4#0638033C00000600
(1.180000) vcan0 2E6#0660030800000600
(1.190000) vcan0 1EE#1F7C07A70700
(1.190000) vcan0 4F0#02000000000000
(1.190000) vcan0 1F4#00000000440700
(1.190000) vcan0 1E4#00000000019A0700
(1.190000) vcan0 2E2#0000000000000700
(1.190000) vcan0 2E4#0638032C00000700
(1.190000) vcan0 2E6#0664034B00000700
(1.200000) vcan0 1EE#1F7807A50800
(1.200000) vcan0 4F0#02000000000000
(1.200000) vcan0 1F4#00000000440800
(1.200000) vcan0 1E4#00000000019E0800
(1.200000) vcan0 2E2#0000000000000800
(1.200000) vcan0 2E4#0664035200000800
(1.200000) vcan0 2E6#0696032A00000800
(1.210000) vcan0 1EE#1F7307A30900
(1.210000) vcan0 4F0#02000000000000
(1.210000) vcan0 1F4#00000000440900
(1.210000) vcan0 1E4#0000000001A10900
(1.210000) vcan0 2E2#0000000000000900
(1.210000) vcan0 2E4#063A035100000900
(1.210000) vcan0 2E6#069E033500000900
(1.220000) vcan0 1EE#1F6F07A10A00
(1.220000) vcan0 4F0#02000000000000
(1.220000) vcan0 1F4#00000000440A00
(1.220000) vcan0 1E4#0000000001A50A00
(1.220000) vcan0 2E2#0000000000000A00
(1.220000) vcan0 2E4#067A033300000A00
(1.220000) vcan0 2E6#0694032900000A00
(1.230000) vcan0 1EE#1F6A079F0B00
(1.230000) vcan0 4F0#02000000000000
(1.230000) vcan0 1F4#00000000440B00
(1.230000) vcan0 1E4#0000000001A80B00
(1.230000) vcan0 2E2#0000000000000B00
(1.230000) vcan0 2E4#06F4035C00000B00
(1.230000) vcan0 2E6#06A2034800000B00
(1.240000) vcan0 1EE#1F65079D0C00
(1.240000) vcan0 4F0#02000000000000
(1.240000) vcan0 1F4#00000000440C00
(1.240000) vcan0 1E4#0000000001AC0C00
(1.240000) vcan0 2E2#0000000000000C00
(1.240000) vcan0 2E4#0664037000000C00
(1.240000) vcan0 2E6#0694033F00000C00
(1.250000) vcan0 1EE#1F5F079B0D00
(1.250000) vcan0 4F0#02000000000000
(1.250000) vcan0 1F4#00000000440D00
(1.250000) vcan0 1E4#0000000001AF0D00
(1.250000) vcan0 2E2#0000000000000D00
(1.250000) vcan0 2E4#068C038700000D00
(1.250000) vcan0 2E6#06D8035600000D00
(1.260000) vcan0 1EE#1F5A07990E00
(1.260000) vcan0 4F0#02000000000000
(1.260000) vcan0 1F4#00000000440E00
(1.260000) vcan0 1E4#0000000001B20E00
(1.260000) vcan0 2E2#0000000000000E00
(1.260000) vcan0 2E4#069A034E00000E00
(1.260000) vcan0 2E6#0682038B00000E00
(1.270000) vcan0 1EE#1F5407970F00
(1.270000) vcan0 4F0#02000000000000
(1.270000) vcan0 1F4#00000000440F00
(1.270000) vcan0 1E4#0000000001B60F00
(1.270000) vcan0 2E2#0000000000000F00
(1.270000) vcan0 2E4#072C037700000F00
(1.270000) vcan0 2E6#072E034A00000F00
(1.280000) vcan0 1EE#1F4E07950000
(1.280000) vcan0 4F0#02000000000000
(1.280000) vcan0 1F4#00000000440000
(1.280000) vcan0 1E4#0000000001B90000
(1.280000) vcan0 2E2#0000000000000000
(1.280000) vcan0 2E4#06B8034B00000000
(1.280000) vcan0 2E6#06CC037A00000000
(1.290000) vcan0 1EE#1F4807930100
(1.290000) vcan0 4F0#02000000000000
(1.290000) vcan0 1F4#00000000440100
(1.290000) vcan0 1E4#0000000001BD0100
(1.290000) vcan0 2E2#0000000000000100
(1.290000) vcan0 2E4#0736035500000100
(1.290000) vcan0 2E6#06C4037500000100
(1.300000) vcan0 1EE#1F4207910200
(1.300000) vcan0 4F0#02000000000000
(1.300000) vcan0 1F4#00000000440200
(1.300000) vcan0 1E4#0000000001C00200
(1.300000) vcan0 2E2#0000000000000200
(1.300000) vcan0 2E4#06D4038400000200
(1.300000) vcan0 2E6#06E2038200000200
(1.310000) vcan0 1EE#1F3B078F0300
(1.310000) vcan0 4F0#02000000000000
(1.310000) vcan0 1F4#00000000440300
(1.310000) vcan0 1E4#0000000001C40300
(1.310000) vcan0 2E2#0000000000000300
(1.310000) vcan0 2E4#06BC038D00000300
(1.310000) vcan0 2E6#0742038E00000300
(1.320000) vcan0 1EE#1F35078D0400
(1.320000) vcan0 4F0#02000000000000
(1.320000) vcan0 1F4#00000000440400
(1.320000) vcan0 1E4#0000000001C70400
(1.320000) vcan0 2E2#0000000000000400
(1.320000) vcan0 2E4#0736037600000400
(1.320000) vcan0 2E6#0706037400000400
(1.330000) vcan0 1EE#1F2E078B0500
(1.330000) vcan0 4F0#02000000000000
(1.330000) vcan0 1F4#00000000440500
(1.330000) vcan0 1E4#0000000001CB0500
(1.330000) vcan0 2E2#0000000000000500
(1.330000) vcan0 2E4#06D803A600000500
(1.330000) vcan0 2E6#06D0038200000500
(1.340000) vcan0 1EE#1F2707890600
(1.340000) vcan0 4F0#02000000000000
(1.340000) vcan0 1F4#00000000440600
(1.340000) vcan0 1E4#0000000001CE0600
(1.340000) vcan0 2E2#0000000000000600
(1.340000) vcan0 2E4#06E003A400000600
(1.340000) vcan0 2E6#071003A000000600
(1.350000) vcan0 1EE#1F1F07870700
(1.350000) vcan0 4F0#02000000000000
(1.350000) vcan0 1F4#00000000440700
(1.350000) vcan0 1E4#0000000001D20700
(1.350000) vcan0 2E2#0000000000000700
(1.350000) vcan0 2E4#0736039200000700
(1.350000) vcan0 2E6#06F0038F00000700
(1.360000) vcan0 1EE#1F1807850800
(1.360000) vcan0 4F0#02000000000000
(1.360000) vcan0 1F4#00000000440800
(1.360000) vcan0 1E4#0000000001D50800
(1.360000) vcan0 2E2#0000000000000800
(1.360000) vcan0 2E4#072A03D700000800
(1.360000) vcan0 2E6#075A03B700000800
(1.370000) vcan0 1EE#1F1007830900
(1.370000) vcan0 4F0#02000000000000
(1.370000) vcan0 1F4#00000000440900
(1.370000) vcan0 1E4#0000000001D80900
(1.370000) vcan0 2E2#0000000000000900
(1.370000) vcan0 2E4#079203BE00000900
(1.370000) vcan0 2E6#0790039900000900
(1.380000) vcan0 1EE#1F0807810A00
(1.380000) vcan0 4F0#02000000000000
(1.380000) vcan0 1F4#00000000440A00
(1.380000) vcan0 1E4#0000000001DC0A00
(1.380000) vcan0 2E2#0000000000000A00
(1.380000) vcan0 2E4#07B003B600000A00
(1.380000) vcan0 2E6#072E03CC00000A00
(1.390000) vcan0 1EE#1F0007800B00
(1.390000) vcan0 4F0#02000000000000
(1.390000) vcan0 1F4#00000000440B00
(1.390000) vcan0 1E4#0000000001DF0B00
(1.390000) vcan0 2E2#0000000000000B00
(1.390000) vcan0 2E4#07DA03AB00000B00
(1.390000) vcan0 2E6#075E03C200000B00
(1.400000) vcan0 1EE#1EF8077E0C00
(1.400000) vcan0 4F0#02000000000000
(1.400000) vcan0 1F4#00000000440C00
(1.400000) vcan0 1E4#0000000001E30C00
(1.400000) vcan0 2E2#0000000000000C00
(1.400000) vcan0 2E4#07C0039900000C00
(1.400000) vcan0 2E6#075A039700000C00
(1.410000) vcan0 1EE#1EF0077C0D00
(1.410000) vcan0 4F0#02000000000000
(1.410000) vcan0 1F4#00000000440D00
(1.410000) vcan0 1E4#0000000001E60D00
(1.410000) vcan0 2E2#0000000000000D00
(1.410000) vcan0 2E4#077003A300000D00
(1.410000) vcan0 2E6#078A03B300000D00
(1.420000) vcan0 1EE#1EE7077A0E00
(1.420000) vcan0 4F0#02000000000000
(1.420000) vcan0 1F4#00000000440E00
(1.420000) vcan0 1E4#0000000001EA0E00
(1.420000) vcan0 2E2#0000000000000E00
(1.420000) vcan0 2E4#076803F200000E00
(1.420000) vcan0 2E6#079E03DB00000E00
(1.430000) vcan0 1EE#1EDE07780F00
(1.430000) vcan0 4F0#02000000000000
(1.430000) vcan0 1F4#00000000440F00
(1.430000) vcan0 1E4#0000000001ED0F00
(1.430000) vcan0 2E2#0000000000000F00
(1.430000) vcan0 2E4#080C03FA00000F00
(1.430000) vcan0 2E6#07C603BD00000F00
(1.440000) vcan0 1EE#1ED507770000
(1.440000) vcan0 4F0#02000000000000
(1.440000) vcan0 1F4#00000000440000
(1.440000) vcan0 1E4#0000000001F10000
(1.440000) vcan0 2E2#0000000000000000
(1.440000) vcan0 2E4#07C8041000000000
(1.440000) vcan0 2E6#07E603F600000000
(1.450000) vcan0 1EE#1ECC07750100
(1.450000) vcan0 4F0#02000000000000
(1.450000) vcan0 1F4#00000000440100
(1.450000) vcan0 1E4#0000000001F40100
(1.450000) vcan0 2E2#0000000000000100
(1.450000) vcan0 2E4#079203C400000100
(1.450000) vcan0 2E6#07A8041800000100
(1.460000) vcan0 1EE#1EC307730200
(1.460000) vcan0 4F0#02000000000000
(1.460000) vcan0 1F4#00000000440200
(1.460000) vcan0 1E4#0000000001F70200
(1.460000) vcan0 2E2#0000000000000200
(1.460000) vcan0 2E4#07CA040D00000200
(1.460000) vcan0 2E6#07D403F500000200
(1.470000) vcan0 1EE#1EBA07720300
(1.470000) vcan0 4F0#02000000000000
(1.470000) vcan0 1F4#00000000440300
(1.470000) vcan0 1E4#0000000001FB0300
(1.470000) vcan0 2E2#0000000000000300
(1.470000) vcan0 2E4#07DE03CF00000300
(1.470000) vcan0 2E6#07DA041900000300
(1.480000) vcan0 1EE#1EB007700400
(1.480000) vcan0 4F0#02000000000000
(1.480000) vcan0 1F4#00000000440400
(1.480000) vcan0 1E4#0000000001FE0400
(1.480000) vcan0 2E2#0000000000000400
(1.480000) vcan0 2E4#081603F900000400
(1.480000) vcan0 2E6#07AE040500000400
(1.490000) vcan0 1EE#1EA6076E0500
(1.490000) vcan0 4F0#02000000000000
(1.490000) vcan0 1F4#00000000440500
(1.490000) vcan0 1E4#0000000002020500
(1.490000) vcan0 2E2#0000000000000500
(1.490000) vcan0 2E4#0868040300000500
(1.490000) vcan0 2E6#0800043600000500
(1.500000) vcan0 1EE#1E9C076D0600
(1.500000) vcan0 4F0#02000000000000
(1.500000) vcan0 1F4#00000000440600
(1.500000) vcan0 1E4#0000000002050600
(1.500000) vcan0 2E2#0000000000000600
(1.500000) vcan0 2E4#082A042C00000600
(1.500000) vcan0 2E6#0826042F00000600
(1.510000) vcan0 1EE#1E92076B0700
(1.510000) vcan0 4F0#02000000000000
(1.510000) vcan0 1F4#00000000440700
(1.510000) vcan0 1E4#0000000002090700
(1.510000) vcan0 2E2#0000000000000700
(1.510000) vcan0 2E4#087E03FB00000700
(1.510000) vcan0 2E6#088403F300000700
(1.520000) vcan0 1EE#1E88076A0800
(1.520000) vcan0 4F0#02000000000000
(1.520000) vcan0 1F4#00000000440800
(1.520000) vcan0 1E4#00000000020C0800
(1.520000) vcan0 2E2#0000000000000800
(1.520000) vcan0 2E4#083003FF00000800
(1.520000) vcan0 2E6#0884041700000800
(1.530000) vcan0 1EE#1E7E07680900
(1.530000) vcan0 4F0#02000000000000
(1.530000) vcan0 1F4#00000000440900
(1.530000) vcan0 1E4#0000000002100900
(1.530000) vcan0 2E2#0000000000000900
(1.530000) vcan0 2E4#080C041500000900
(1.530000) vcan0 2E6#0862043700000900
(1.540000) vcan0 1EE#1E7307670A00
(1.540000) vcan0 4F0#02000000000000
(1.540000) vcan0 1F4#00000000440A00
(1.540000) vcan0 1E4#0000000002130A00
(1.540000) vcan0 2E2#0000000000000A00
(1.540000) vcan0 2E4#082A044500000A00
(1.540000) vcan0 2E6#085003F900000A00
(1.550000) vcan0 1EE#1E6907650B00
(1.550000) vcan0 4F0#02000000000000
(1.550000) vcan0 1F4#00000000440B00
(1.550000) vcan0 1E4#0000000002160B00
(1.550000) vcan0 2E2#0000000000000B00
(1.550000) vcan0 2E4#087E043700000B00
(1.550000) vcan0 2E6#08A8041C00000B00
(1.560000) vcan0 1EE#1E5E07640C00
(1.560000) vcan0 4F0#02000000000000
(1.560000) vcan0 1F4#00000000440C00
(1.560000) vcan0 1E4#00000000021A0C00
(1.560000) vcan0 2E2#0000000000000C00
(1.560000) vcan0 2E4#087C046500000C00
(1.560000) vcan0 2E6#0824043800000C00
(1.570000) vcan0 1EE#1E5307620D00
(1.570000) vcan0 4F0#02000000000000
(1.570000) vcan0 1F4#00000000440D00
(1.570000) vcan0 1E4#00000000021D0D00
(1.570000) vcan0 2E2#0000000000000D00
(1.570000) vcan0 2E4#085E040F00000D00
(1.570000) vcan0 2E6#084C046200000D00
(1.580000) vcan0 1EE#1E4807610E00
(1.580000) vcan0 4F0#02000000000000
(1.580000) vcan0 1F4#00000000440E00
(1.580000) vcan0 1E4#0000000002210E00
(1.580000) vcan0 2E2#0000000000000E00
(1.580000) vcan0 2E4#0818046C00000E00
(1.580000) vcan0 2E6#08D4045700000E00
(1.590000) vcan0 1EE#1E3C07600F00
(1.590000) vcan0 4F0#02000000000000
(1.590000) vcan0 1F4#00000000440F00
(1.590000) vcan0 1E4#0000000002240F00
(1.590000) vcan0 2E2#0000000000000F00
(1.590000) vcan0 2E4#086E047A00000F00
(1.590000) vcan0 2E6#0844045D00000F00
(1.600000) vcan0 1EE#1E31075E0000
(1.600000) vcan0 4F0#02000000000000
(1.600000) vcan0 1F4#00000000440000
(1.600000) vcan0 1E4#0000000002280000
(1.600000) vcan0 2E2#0000000000000000
(1.600000) vcan0 2E4#088C042D00000000
(1.600000) vcan0 2E6#08DC044400000000
(1.610000) vcan0 1EE#1E26075D0100
(1.610000) vcan0 4F0#02000000000000
(1.610000) vcan0 1F4#00000000440100
(1.610000) vcan0 1E4#00000000022B0100
(1.610000) vcan0 2E2#0000000000000100
(1.610000) vcan0 2E4#0874042C00000100
(1.610000) vcan0 2E6#0882047100000100
(1.620000) vcan0 1EE#1E1A075C0200
(1.620000) vcan0 4F0#02000000000000
(1.620000) vcan0 1F4#00000000440200
(1.620000) vcan0 1E4#00000000022F0200
(1.620000) vcan0 2E2#0000000000000200
(1.620000) vcan0 2E4#090C048700000200
(1.620000) vcan0 2E6#08A6043700000200
(1.630000) vcan0 1EE#1E0E075A0300
(1.630000) vcan0 4F0#02000000000000
(1.630000) vcan0 1F4#00000000440300
(1.630000) vcan0 1E4#0000000002320300
(1.630000) vcan0 2E2#0000000000000300
(1.630000) vcan0 2E4#0934046E00000300
(1.630000) vcan0 2E6#08AC043F00000300
(1.640000) vcan0 1EE#1E0207590400
(1.640000) vcan0 4F0#02000000000000
(1.640000) vcan0 1F4#00000000440400
(1.640000) vcan0 1E4#0000000002360400
(1.640000) vcan0 2E2#0000000000000400
(1.640000) vcan0 2E4#08A0048800000400
(1.640000) vcan0 2E6#086A047200000400
(1.650000) vcan0 1EE#1DF607580500
(1.650000) vcan0 4F0#02000000000000
(1.650000) vcan0 1F4#00000000440500
(1.650000) vcan0 1E4#0000000002390500
(1.650000) vcan0 2E2#0000000000000500
(1.650000) vcan0 2E4#091604A700000500
(1.650000) vcan0 2E6#0936049E00000500
(1.660000) vcan0 1EE#1DEA07570600
(1.660000) vcan0 4F0#02000000000000
(1.660000) vcan0 1F4#00000000440600
(1.660000) vcan0 1E4#00000000023C0600
(1.660000) vcan0 2E2#0000000000000600
(1.660000) vcan0 2E4#0940044600000600
(1.660000) vcan0 2E6#0938047100000600
(1.670000) vcan0 1EE#1DDE07560700
(1.670000) vcan0 4F0#02000000000000
(1.670000) vcan0 1F4#00000000440700
(1.670000) vcan0 1E4#0000000002400700
(1.670000) vcan0 2E2#0000000000000700
(1.670000) vcan0 2E4#0902046F00000700
(1.670000) vcan0 2E6#08C8047900000700
(1.680000) vcan0 1EE#1DD207550800
(1.680000) vcan0 4F0#02000000000000
(1.680000) vcan0 1F4#00000000440800
(1.680000) vcan0 1E4#0000000002430800
(1.680000) vcan0 2E2#0000000000000800
(1.680000) vcan0 2E4#08B2048500000800
(1.680000) vcan0 2E6#08A2049500000800
(1.690000) vcan0 1EE#1DC507540900
(1.690000) vcan0 4F0#02000000000000
(1.690000) vcan0 1F4#00000000440900
(1.690000) vcan0 1E4#0000000002470900
(1.690000) vcan0 2E2#0000000000000900
(1.690000) vcan0 2E4#097804C600000900
(1.690000) vcan0 2E6#0982049E00000900
(1.700000) vcan0 1EE#1DB907530A00
(1.700000) vcan0 4F0#02000000000000
(1.700000) vcan0 1F4#00000000440A00
(1.700000) vcan0 1E4#00000000024A0A00
(1.700000) vcan0 2E2#0000000000000A00
(1.700000) vcan0 2E4#08DA04CA00000A00
(1.700000) vcan0 2E6#0980049800000A00
(1.710000) vcan0 1EE#1DAC07520B00
(1.710000) vcan0 4F0#02000000000000
(1.710000) vcan0 1F4#00000000440B00
(1.710000) vcan0 1E4#00000000024E0B00
(1.710000) vcan0 2E2#0000000000000B00
(1.710000) vcan0 2E4#08EE048A00000B00
(1.710000) vcan0 2E6#095A047400000B00
(1.720000) vcan0 1EE#1D9F07510C00
(1.720000) vcan0 4F0#02000000000000
(1.720000) vcan0 1F4#00000000440C00
(1.720000) vcan0 1E4#0000000002510C00
(1.720000) vcan0 2E2#0000000000000C00
(1.720000) vcan0 2E4#097E04B100000C00
(1.720000) vcan0 2E6#092604C700000C00
(1.730000) vcan0 1EE#1D9207500D00
(1.730000) vcan0 4F0#02000000000000
(1.730000) vcan0 1F4#00000000440D00
(1.730000) vcan0 1E4#0000000002550D00
(1.730000) vcan0 2E2#0000000000000D00
(1.730000) vcan0 2E4#098A049400000D00
(1.730000) vcan0 2E6#08E6047B00000D00
(1.740000) vcan0 1EE#1D85074F0E00
(1.740000) vcan0 4F0#02000000000000
(1.740000) vcan0 1F4#00000000440E00
(1.740000) vcan0 1E4#0000000002580E00
(1.740000) vcan0 2E2#0000000000000E00
(1.740000) vcan0 2E4#08EA04BA00000E00
(1.740000) vcan0 2E6#098404B200000E00
(1.750000) vcan0 1EE#1D78074E0F00
(1.750000) vcan0 4F0#02000000000000
(1.750000) vcan0 1F4#00000000440F00
(1.750000) vcan0 1E4#00000000025B0F00
(1.750000) vcan0 2E2#0000000000000F00
(1.750000) vcan0 2E4#099204B500000F00
(1.750000) vcan0 2E6#094804DA00000F00
(1.760000) vcan0 1EE#1D6B074D0000
(1.760000) vcan0 4F0#02000000000000
(1.760000) vcan0 1F4#00000000440000
(1.760000) vcan0 1E4#00000000025F0000
(1.760000) vcan0 2E2#0000000000000000
(1.760000) vcan0 2E4#096A049A00000000
(1.760000) vcan0 2E6#099804B000000000
(1.770000) vcan0 1EE#1D5E074C0100
(1.770000) vcan0 4F0#02000000000000
(1.770000) vcan0 1F4#00000000440100
(1.770000) vcan0 1E4#0000000002620100
(1.770000) vcan0 2E2#0000000000000100
(1.770000) vcan0 2E4#091A04CA00000100
(1.770000) vcan0 2E6#09B204C600000100
(1.780000) vcan0 1EE#1D51074B0200
(1.780000) vcan0 4F0#02000000000000
(1.780000) vcan0 1F4#00000000440200
(1.780000) vcan0 1E4#0000000002660200
(1.780000) vcan0 2E2#0000000000000200
(1.780000) vcan0 2E4#096604A700000200
(1.780000) vcan0 2E6#09E404DD00000200
(1.790000) vcan0 1EE#1D44074B0300
(1.790000) vcan0 4F0#02000000000000
(1.790000) vcan0 1F4#00000000440300
(1.790000) vcan0 1E4#0000000002690300
(1.790000) vcan0 2E2#0000000000000300
(1.790000) vcan0 2E4#09F404ED00000300
(1.790000) vcan0 2E6#096404E600000300
(1.800000) vcan0 1EE#1D36074A0400
(1.800000) vcan0 4F0#02000000000000
(1.800000) vcan0 1F4#00000000440400
(1.800000) vcan0 1E4#00000000026D0400
(1.800000) vcan0 2E2#0000000000000400
(1.800000) vcan0 2E4#09A404B300000400
(1.800000) vcan0 2E6#097604E300000400
(1.810000) vcan0 1EE#1D2907490500
(1.810000) vcan0 4F0#02000000000000
(1.810000) vcan0 1F4#00000000440500
(1.810000) vcan0 1E4#0000000002700500
(1.810000) vcan0 2E2#0000000000000500
(1.810000) vcan0 2E4#09C404A700000500
(1.810000) vcan0 2E6#0A1E04BE00000500
(1.820000) vcan0 1EE#1D1B07490600
(1.820000) vcan0 4F0#02000000000000
(1.820000) vcan0 1F4#00000000440600
(1.820000) vcan0 1E4#0000000002740600
(1.820000) vcan0 2E2#0000000000000600
(1.820000) vcan0 2E4#0970050E00000600
(1.820000) vcan0 2E6#09CA04F000000600
(1.830000) vcan0 1EE#1D0D07480700
(1.830000) vcan0 4F0#02000000000000
(1.830000) vcan0 1F4#00000000440700
(1.830000) vcan0 1E4#0000000002770700
(1.830000) vcan0 2E2#0000000000000700
(1.830000) vcan0 2E4#09EA04E500000700
(1.830000) vcan0 2E6#0A1404B900000700
(1.840000) vcan0 1EE#1D0007470800
(1.840000) vcan0 4F0#02000000000000
(1.840000) vcan0 1F4#00000000440800
(1.840000) vcan0 1E4#00000000027A0800
(1.840000) vcan0 2E2#0000000000000800
(1.840000) vcan0 2E4#0974051900000800
(1.840000) vcan0 2E6#097E04E600000800
(1.850000) vcan0 1EE#1CF207470900
(1.850000) vcan0 4F0#02000000000000
(1.850000) vcan0 1F4#00000000440900
(1.850000) vcan0 1E4#00000000027E0900
(1.850000) vcan0 2E2#0000000000000900
(1.850000) vcan0 2E4#0A4004DE00000900
(1.850000) vcan0 2E6#0A22051900000900
(1.860000) vcan0 1EE#1CE407460A00
(1.860000) vcan0 4F0#02000000000000
(1.860000) vcan0 1F4#00000000440A00
(1.860000) vcan0 1E4#0000000002810A00
(1.860000) vcan0 2E2#0000000000000A00
(1.860000) vcan0 2E4#0A4604FC00000A00
(1.860000) vcan0 2E6#0A0A050F00000A00
(1.870000) vcan0 1EE#1CD707460B00
(1.870000) vcan0 4F0#02000000000000
(1.870000) vcan0 1F4#00000000440B00
(1.870000) vcan0 1E4#0000000002850B00
(1.870000) vcan0 2E2#0000000000000B00
(1.870000) vcan0 2E4#0A8A053000000B00
(1.870000) vcan0 2E6#0A46053400000B00
(1.880000) vcan0 1EE#1CC907450C00
(1.880000) vcan0 4F0#02000000000000
(1.880000) vcan0 1F4#00000000440C00
(1.880000) vcan0 1E4#0000000002880C00
(1.880000) vcan0 2E2#0000000000000C00
(1.880000) vcan0 2E4#09D2052100000C00
(1.880000) vcan0 2E6#0A0804F500000C00
(1.890000) vcan0 1EE#1CBB07450D00
(1.890000) vcan0 4F0#02000000000000
(1.890000) vcan0 1F4#00000000440D00
(1.890000) vcan0 1E4#00000000028C0D00
(1.890000) vcan0 2E2#0000000000000D00
(1.890000) vcan0 2E4#0A36055800000D00
(1.890000) vcan0 2E6#0A4C04EE00000D00
(1.900000) vcan0 1EE#1CAD07450E00
(1.900000) vcan0 4F0#02000000000000
(1.900000) vcan0 1F4#00000000440E00
(1.900000) vcan0 1E4#00000000028F0E00
(1.900000) vcan0 2E2#0000000000000E00
(1.900000) vcan0 2E4#0A7A054E00000E00
(1.900000) vcan0 2E6#0A72054100000E00
(1.910000) vcan0 1EE#1C9F07440F00
(1.910000) vcan0 4F0#02000000000000
(1.910000) vcan0 1F4#00000000440F00
(1.910000) vcan0 1E4#0000000002930F00
(1.910000) vcan0 2E2#0000000000000F00
(1.910000) vcan0 2E4#0A46052F00000F00
(1.910000) vcan0 2E6#0A02050400000F00
(1.920000) vcan0 1EE#1C9107440000
(1.920000) vcan0 4F0#02000000000000
(1.920000) vcan0 1F4#00000000440000
(1.920000) vcan0 1E4#0000000002960000
(1.920000) vcan0 2E2#0000000000000000
(1.920000) vcan0 2E4#0A66052500000000
(1.920000) vcan0 2E6#0A16050B00000000
(1.930000) vcan0 1EE#1C8307440100
(1.930000) vcan0 4F0#02000000000000
(1.930000) vcan0 1F4#00000000440100
(1.930000) vcan0 1E4#00000000029A0100
(1.930000) vcan0 2E2#0000000000000100
(1.930000) vcan0 2E4#0AAE057500000100
(1.930000) vcan0 2E6#0A80050100000100
(1.940000) vcan0 1EE#1C7507430200
(1.940000) vcan0 4F0#02000000000000
(1.940000) vcan0 1F4#00000000440200
(1.940000) vcan0 1E4#00000000029D0200
(1.940000) vcan0 2E2#0000000000000200
(1.940000) vcan0 2E4#0AEE053B00000200
(1.940000) vcan0 2E6#0A96057000000200
(1.950000) vcan0 1EE#1C6707430300
(1.950000) vcan0 4F0#02000000000000
(1.950000) vcan0 1F4#00000000440300
(1.950000) vcan0 1E4#0000000002A00300
(1.950000) vcan0 2E2#0000000000000300
(1.950000) vcan0 2E4#0B00054100000300
(1.950000) vcan0 2E6#0A0C052000000300
(1.960000) vcan0 1EE#1C5907430400
(1.960000) vcan0 4F0#02000000000000
(1.960000) vcan0 1F4#00000000440400
(1.960000) vcan0 1E4#0000000002A40400
(1.960000) vcan0 2E2#0000000000000400
(1.960000) vcan0 2E4#0A18052600000400
(1.960000) vcan0 2E6#0A52058900000400
(1.970000) vcan0 1EE#1C4A07430500
(1.970000) vcan0 4F0#00000000000000
(1.970000) vcan0 1F4#00000000440500
(1.970000) vcan0 1E4#0000000002A70500
(1.970000) vcan0 2E2#0000000000000500
(1.970000) vcan0 2E4#0A4A058C00000500
(1.970000) vcan0 2E6#0B1E054700000500
(1.980000) vcan0 1EE#1C3C07430600
(1.980000) vcan0 4F0#00000000000000
(1.980000) vcan0 1F4#00000000440600
(1.980000) vcan0 1E4#0000000002AB0600
(1.980000) vcan0 2E2#0000000000000600
(1.980000) vcan0 2E4#0A64059200000600
(1.980000) vcan0 2E6#0AC2053900000600
(1.990000) vcan0 1EE#1C2E07430700
(1.990000) vcan0 4F0#00000000000000
(1.990000) vcan0 1F4#00000000440700
(1.990000) vcan0 1E4#0000000002AE0700
(1.990000) vcan0 2E2#0000000000000700
(1.990000) vcan0 2E4#0A6A053D00000700
(1.990000) vcan0 2E6#0B1C059700000700
(2.000000) vcan0 1EE#1C2007430800
(2.000000) vcan0 4F0#00000000000000
(2.000000) vcan0 1F4#00000000440800
(2.000000) vcan0 1E4#0000000002B20800
(2.000000) vcan0 2E2#0000000000000800
(2.000000) vcan0 2E4#0AA4058600000800
(2.000000) vcan0 2E6#0A78055F00000800
(2.010000) vcan0 1EE#1C1207430900
(2.010000) vcan0 4F0#00000000000000
(2.010000) vcan0 1F4#00000000440900
(2.010000) vcan0 1E4#0000000002B50900
(2.010000) vcan0 2E2#0000000000000900
(2.010000) vcan0 2E4#0A9E058800000900
(2.010000) vcan0 2E6#0AB0057000000900
(2.020000) vcan0 1EE#1C0407430A00
(2.020000) vcan0 4F0#00000000000000
(2.020000) vcan0 1F4#00000000440A00
(2.020000) vcan0 1E4#0000000002B90A00
(2.020000) vcan0 2E2#0000000000000A00
(2.020000) vcan0 2E4#0B5005A600000A00
(2.020000) vcan0 2E6#0AF2057B00000A00
(2.030000) vcan0 1EE#1BF607430B00
(2.030000) vcan0 4F0#00000000000000
(2.030000) vcan0 1F4#00000000440B00
(2.030000) vcan0 1E4#0000000002BC0B00
(2.030000) vcan0 2E2#0000000000000B00
(2.030000) vcan0 2E4#0AEC056500000B00
(2.030000) vcan0 2E6#0B40057F00000B00
(2.040000) vcan0 1EE#1BE707430C00
(2.040000) vcan0 4F0#01000000000000
(2.040000) vcan0 1F4#00000000440C00
(2.040000) vcan0 1E4#0000000002BF0C00
(2.040000) vcan0 2E2#0000000000000C00
(2.040000) vcan0 2E4#0B6E054A00000C00
(2.040000) vcan0 2E6#0B2E05BB00000C00
(2.050000) vcan0 1EE#1BD907430D00
(2.050000) vcan0 4F0#01000000000000
(2.050000) vcan0 1F4#00000000440D00
(2.050000) vcan0 1E4#0000000002C30D00
(2.050000) vcan0 2E2#0000000000000D00
(2.050000) vcan0 2E4#0A92056300000D00
(2.050000) vcan0 2E6#0A88056700000D00
(2.060000) vcan0 1EE#1BCB07430E00
(2.060000) vcan0 4F0#01000000000000
(2.060000) vcan0 1F4#00000000440E00
(2.060000) vcan0 1E4#0000000002C60E00
(2.060000) vcan0 2E2#0000000000000E00
(2.060000) vcan0 2E4#0B9A057B00000E00
(2.060000) vcan0 2E6#0BA4054800000E00
(2.070000) vcan0 1EE#1BBD07430F00
(2.070000) vcan0 4F0#01000000000000
(2.070000) vcan0 1F4#00000000440F00
(2.070000) vcan0 1E4#0000000002CA0F00
(2.070000) vcan0 2E2#0000000000000F00
(2.070000) vcan0 2E4#0AC8059C00000F00
(2.070000) vcan0 2E6#0B7405D700000F00
(2.080000) vcan0 1EE#1BAF07440000
(2.080000) vcan0 4F0#01000000000000
(2.080000) vcan0 1F4#00000000440000
(2.080000) vcan0 1E4#0000000002CD0000
(2.080000) vcan0 2E2#0000000000000000
(2.080000) vcan0 2E4#0B0C05D400000000
(2.080000) vcan0 2E6#0AF005D200000000
(2.090000) vcan0 1EE#1BA107440100
(2.090000) vcan0 4F0#01000000000000
(2.090000) vcan0 1F4#00000000440100
(2.090000) vcan0 1E4#0000000002D10100
(2.090000) vcan0 2E2#0000000000000100
(2.090000) vcan0 2E4#0B9C05CD00000100
(2.090000) vcan0 2E6#0B68058C00000100
(2.100000) vcan0 1EE#1B9307440200
(2.100000) vcan0 4F0#01000000000000
(2.100000) vcan0 1F4#00000000440200
(2.100000) vcan0 1E4#0000000002D40200
(2.100000) vcan0 2E2#0000000000000200
(2.100000) vcan0 2E4#0BD4056500000200
(2.100000) vcan0 2E6#0B2A05C000000200
(2.110000) vcan0 1EE#1B8507450300
(2.110000) vcan0 4F0#01000000000000
(2.110000) vcan0 1F4#00000000440300
(2.110000) vcan0 1E4#0000000002D80300
(2.110000) vcan0 2E2#0000000000000300
(2.110000) vcan0 2E4#0B6205EF00000300
(2.110000) vcan0 2E6#0BCC05D700000300
(2.120000) vcan0 1EE#1B7707450400
(2.120000) vcan0 4F0#01000000000000
(2.120000) vcan0 1F4#00000000440400
(2.120000) vcan0 1E4#0000000002DB0400
(2.120000) vcan0 2E2#0000000000000400
(2.120000) vcan0 2E4#0BE605A300000400
(2.120000) vcan0 2E6#0B18058400000400
(2.130000) vcan0 1EE#1B6907450500
(2.130000) vcan0 4F0#01000000000000
(2.130000) vcan0 1F4#00000000440500
(2.130000) vcan0 1E4#0000000002DE0500
(2.130000) vcan0 2E2#0000000000000500
(2.130000) vcan0 2E4#0B6005CE00000500
(2.130000) vcan0 2E6#0B84057D00000500
(2.140000) vcan0 1EE#1B5C07460600
(2.140000) vcan0 4F0#01000000000000
(2.140000) vcan0 1F4#00000000440600
(2.140000) vcan0 1E4#0000000002E20600
(2.140000) vcan0 2E2#0000000000000600
(2.140000) vcan0 2E4#0B6E05C700000600
(2.140000) vcan0 2E6#0BBC05CC00000600
(2.150000) vcan0 1EE#1B4E07460700
(2.150000) vcan0 4F0#01000000000000
(2.150000) vcan0 1F4#00000000440700
(2.150000) vcan0 1E4#0000000002E50700
(2.150000) vcan0 2E2#0000000000000700
(2.150000) vcan0 2E4#0C16058600000700
(2.150000) vcan0 2E6#0C0405BB00000700
(2.160000) vcan0 1EE#1B4007470800
(2.160000) vcan0 4F0#01000000000000
(2.160000) vcan0 1F4#00000000440800
(2.160000) vcan0 1E4#0000000002E90800
(2.160000) vcan0 2E2#0000000000000800
(2.160000) vcan0 2E4#0B3405A300000800
(2.160000) vcan0 2E6#0B3805FF00000800
(2.170000) vcan0 1EE#1B3307470900
(2.170000) vcan0 4F0#01000000000000
(2.170000) vcan0 1F4#00000000440900
(2.170000) vcan0 1E4#0000000002EC0900
(2.170000) vcan0 2E2#0000000000000900
(2.170000) vcan0 2E4#0BE605CC00000900
(2.170000) vcan0 2E6#0BEA061F00000900
(2.180000) vcan0 1EE#1B2507480A00
(2.180000) vcan0 4F0#01000000000000
(2.180000) vcan0 1F4#00000000440A00
(2.180000) vcan0 1E4#0000000002F00A00
(2.180000) vcan0 2E2#0000000000000A00
(2.180000) vcan0 2E4#0B9A05ED00000A00
(2.180000) vcan0 2E6#0BA405BD00000A00
(2.190000) vcan0 1EE#1B1707490B00
(2.190000) vcan0 4F0#01000000000000
(2.190000) vcan0 1F4#00000000440B00
(2.190000) vcan0 1E4#0000000002F30B00
(2.190000) vcan0 2E2#0000000000000B00
(2.190000) vcan0 2E4#0BA805C400000B00
(2.190000) vcan0 2E6#0B3805D000000B00
(2.200000) vcan0 1EE#1B0A07490C00
(2.200000) vcan0 4F0#01000000000000
(2.200000) vcan0 1F4#00000000440C00
(2.200000) vcan0 1E4#0000000002F70C00
(2.200000) vcan0 2E2#0000000000000C00
(2.200000) vcan0 2E4#0C6A05B700000C00
(2.200000) vcan0 2E6#0B6205E800000C00
(2.210000) vcan0 1EE#1AFC074A0D00
(2.210000) vcan0 4F0#01000000000000
(2.210000) vcan0 1F4#00000000440D00
(2.210000) vcan0 1E4#0000000002FA0D00
(2.210000) vcan0 2E2#0000000000000D00
(2.210000) vcan0 2E4#0C8005D700000D00
(2.210000) vcan0 2E6#0BA605B900000D00
(2.220000) vcan0 1EE#1AEF074B0E00
(2.220000) vcan0 4F0#01000000000000
(2.220000) vcan0 1F4#00000000440E00
(2.220000) vcan0 1E4#0000000002FE0E00
(2.220000) vcan0 2E2#0000000000000E00
(2.220000) vcan0 2E4#0C20061400000E00
(2.220000) vcan0 2E6#0C3605CD00000E00
(2.230000) vcan0 1EE#1AE2074B0F00
(2.230000) vcan0 4F0#01000000000000
(2.230000) vcan0 1F4#00000000440F00
(2.230000) vcan0 1E4#0000000003010F00
(2.230000) vcan0 2E2#0000000000000F00
(2.230000) vcan0 2E4#0BD6062300000F00
(2.230000) vcan0 2E6#0B7405E900000F00
(2.240000) vcan0 1EE#1AD5074C0000
(2.240000) vcan0 4F0#01000000000000
(2.240000) vcan0 1F4#00000000440000
(2.240000) vcan0 1E4#0000000003040000
(2.240000) vcan0 2E2#0000000000000000
(2.240000) vcan0 2E4#0CA4064F00000000
(2.240000) vcan0 2E6#0BD005ED00000000
(2.250000) vcan0 1EE#1AC8074D0100
(2.250000) vcan0 4F0#01000000000000
(2.250000) vcan0 1F4#00000000440100
(2.250000) vcan0 1E4#0000000003080100
(2.250000) vcan0 2E2#0000000000000100
(2.250000) vcan0 2E4#0C32061A00000100
(2.250000) vcan0 2E6#0BD4063C00000100
(2.260000) vcan0 1EE#1ABB074E0200
(2.260000) vcan0 4F0#01000000000000
(2.260000) vcan0 1F4#00000000440200
(2.260000) vcan0 1E4#00000000030B0200
(2.260000) vcan0 2E2#0000000000000200
(2.260000) vcan0 2E4#0CC205D500000200
(2.260000) vcan0 2E6#0C2405E600000200
(2.270000) vcan0 1EE#1AAE074F0300
(2.270000) vcan0 4F0#01000000000000
(2.270000) vcan0 1F4#00000000440300
(2.270000) vcan0 1E4#00000000030F0300
(2.270000) vcan0 2E2#0000000000000300
(2.270000) vcan0 2E4#0C9E05E700000300
(2.270000) vcan0 2E6#0BD2060B00000300
(2.280000) vcan0 1EE#1AA107500400
(2.280000) vcan0 4F0#01000000000000
(2.280000) vcan0 1F4#00000000440400
(2.280000) vcan0 1E4#0000000003120400
(2.280000) vcan0 2E2#0000000000000400
(2.280000) vcan0 2E4#0CCC066D00000400
(2.280000) vcan0 2E6#0C88062200000400
(2.290000) vcan0 1EE#1A9407510500
(2.290000) vcan0 4F0#01000000000000
(2.290000) vcan0 1F4#00000000440500
(2.290000) vcan0 1E4#0000000003160500
(2.290000) vcan0 2E2#0000000000000500
(2.290000) vcan0 2E4#0C7005EB00000500
(2.290000) vcan0 2E6#0C92063600000500
(2.300000) vcan0 1EE#1A8707520600
(2.300000) vcan0 4F0#01000000000000
(2.300000) vcan0 1F4#00000000440600
(2.300000) vcan0 1E4#0000000003190600
(2.300000) vcan0 2E2#0000000000000600
(2.300000) vcan0 2E4#0CD005E400000600
(2.300000) vcan0 2E6#0C64066F00000600
(2.310000) vcan0 1EE#1A7B07530700
(2.310000) vcan0 4F0#01000000000000
(2.310000) vcan0 1F4#00000000440700
(2.310000) vcan0 1E4#00000000031D0700
(2.310000) vcan0 2E2#0000000000000700
(2.310000) vcan0 2E4#0C56061500000700
(2.310000) vcan0 2E6#0CC0066500000700
(2.320000) vcan0 1EE#1A6E07540800
(2.320000) vcan0 4F0#01000000000000
(2.320000) vcan0 1F4#00000000440800
(2.320000) vcan0 1E4#0000000003200800
(2.320000) vcan0 2E2#0000000000000800
(2.320000) vcan0 2E4#0C86066F00000800
(2.320000) vcan0 2E6#0BE6064D00000800
(2.330000) vcan0 1EE#1A6207550900
(2.330000) vcan0 4F0#01000000000000
(2.330000) vcan0 1F4#00000000440900
(2.330000) vcan0 1E4#0000000003230900
(2.330000) vcan0 2E2#0000000000000900
(2.330000) vcan0 2E4#0D22064A00000900
(2.330000) vcan0 2E6#0C78063500000900
(2.340000) vcan0 1EE#1A5607560A00
(2.340000) vcan0 4F0#01000000000000
(2.340000) vcan0 1F4#00000000440A00
(2.340000) vcan0 1E4#0000000003270A00
(2.340000) vcan0 2E2#0000000000000A00
(2.340000) vcan0 2E4#0C48063400000A00
(2.340000) vcan0 2E6#0C5A068D00000A00
(2.350000) vcan0 1EE#1A4A07570B00
(2.350000) vcan0 4F0#01000000000000
(2.350000) vcan0 1F4#00000000440B00
(2.350000) vcan0 1E4#00000000032A0B00
(2.350000) vcan0 2E2#0000000000000B00
(2.350000) vcan0 2E4#0CFE064400000B00
(2.350000) vcan0 2E6#0CF4062F00000B00
(2.360000) vcan0 1EE#1A3E07580C00
(2.360000) vcan0 4F0#01000000000000
(2.360000) vcan0 1F4#00000000440C00
(2.360000) vcan0 1E4#00000000032E0C00
(2.360000) vcan0 2E2#0000000000000C00
(2.360000) vcan0 2E4#0C80065500000C00
(2.360000) vcan0 2E6#0CDC06A500000C00
(2.370000) vcan0 1EE#1A3207590D00
(2.370000) vcan0 4F0#01000000000000
(2.370000) vcan0 1F4#00000000440D00
(2.370000) vcan0 1E4#0000000003310D00
(2.370000) vcan0 2E2#0000000000000D00
(2.370000) vcan0 2E4#0CFA061900000D00
(2.370000) vcan0 2E6#0C38069B00000D00
(2.380000) vcan0 1EE#1A26075A0E00
(2.380000) vcan0 4F0#01000000000000
(2.380000) vcan0 1F4#00000000440E00
(2.380000) vcan0 1E4#0000000003350E00
(2.380000) vcan0 2E2#0000000000000E00
(2.380000) vcan0 2E4#0D1C065500000E00
(2.380000) vcan0 2E6#0C6006B300000E00
(2.390000) vcan0 1EE#1A1A075C0F00
(2.390000) vcan0 4F0#01000000000000
(2.390000) vcan0 1F4#00000000440F00
(2.390000) vcan0 1E4#0000000003380F00
(2.390000) vcan0 2E2#0000000000000F00
(2.390000) vcan0 2E4#0CE4062000000F00
(2.390000) vcan0 2E6#0CC006B900000F00
(2.400000) vcan0 1EE#1A0F075D0000
(2.400000) vcan0 4F0#01000000000000
(2.400000) vcan0 1F4#00000000440000
(2.400000) vcan0 1E4#00000000033C0000
(2.400000) vcan0 2E2#0000000000000000
(2.400000) vcan0 2E4#0CAE065500000000
(2.400000) vcan0 2E6#0CB4064300000000
(2.410000) vcan0 1EE#1A04075E0100
(2.410000) vcan0 4F0#01000000000000
(2.410000) vcan0 1F4#00000000440100
(2.410000) vcan0 1E4#00000000033F0100
(2.410000) vcan0 2E2#0000000000000100
(2.410000) vcan0 2E4#0D06066700000100
(2.410000) vcan0 2E6#0D1806B500000100
(2.420000) vcan0 1EE#19F807600200
(2.420000) vcan0 4F0#01000000000000
(2.420000) vcan0 1F4#00000000440200
(2.420000) vcan0 1E4#0000000003420200
(2.420000) vcan0 2E2#0000000000000200
(2.420000) vcan0 2E4#0D98069B00000200
(2.420000) vcan0 2E6#0D1406CA00000200
(2.430000) vcan0 1EE#19ED07610300
(2.430000) vcan0 4F0#01000000000000
(2.430000) vcan0 1F4#00000000440300
(2.430000) vcan0 1E4#0000000003460300
(2.430000) vcan0 2E2#0000000000000300
(2.430000) vcan0 2E4#0D20066000000300
(2.430000) vcan0 2E6#0C9606A500000300
(2.440000) vcan0 1EE#19E207620400
(2.440000) vcan0 4F0#01000000000000
(2.440000) vcan0 1F4#00000000440400
(2.440000) vcan0 1E4#0000000003490400
(2.440000) vcan0 2E2#0000000000000400
(2.440000) vcan0 2E4#0CE0067700000400
(2.440000) vcan0 2E6#0CC8064300000400
(2.450000) vcan0 1EE#19D707640500
(2.450000) vcan0 4F0#01000000000000
(2.450000) vcan0 1F4#00000000440500
(2.450000) vcan0 1E4#00000000034D0500
(2.450000) vcan0 2E2#0000000000000500
(2.450000) vcan0 2E4#0D1E06E800000500
(2.450000) vcan0 2E6#0D5806A000000500
(2.460000) vcan0 1EE#19CD07650600
(2.460000) vcan0 4F0#01000000000000
(2.460000) vcan0 1F4#00000000440600
(2.460000) vcan0 1E4#0000000003500600
(2.460000) vcan0 2E2#0000000000000600
(2.460000) vcan0 2E4#0D3006CF00000600
(2.460000) vcan0 2E6#0CA6068E00000600
(2.470000) vcan0 1EE#19C207670700
(2.470000) vcan0 4F0#01000000000000
(2.470000) vcan0 1F4#00000000440700
(2.470000) vcan0 1E4#0000000003540700
(2.470000) vcan0 2E2#0000000000000700
(2.470000) vcan0 2E4#0CD806CE00000700
(2.470000) vcan0 2E6#0D6406E700000700
(2.480000) vcan0 1EE#19B807680800
(2.480000) vcan0 4F0#01000000000000
(2.480000) vcan0 1F4#00000000440800
(2.480000) vcan0 1E4#0000000003570800
(2.480000) vcan0 2E2#0000000000000800
(2.480000) vcan0 2E4#0D2A069C00000800
(2.480000) vcan0 2E6#0D8606BD00000800
(2.490000) vcan0 1EE#19AE076A0900
(2.490000) vcan0 4F0#01000000000000
(2.490000) vcan0 1F4#00000000440900
(2.490000) vcan0 1E4#00000000035B0900
(2.490000) vcan0 2E2#0000000000000900
(2.490000) vcan0 2E4#0D2E06FB00000900
(2.490000) vcan0 2E6#0CE8067A00000900
(2.500000) vcan0 1EE#19A4076B0A00
(2.500000) vcan0 4F0#01000000000000
(2.500000) vcan0 1F4#00000000440A00
(2.500000) vcan0 1E4#00000000035E0A00
(2.500000) vcan0 2E2#0000000000000A00
(2.500000) vcan0 2E4#0D7C070000000A00
(2.500000) vcan0 2E6#0D08068800000A00
(2.510000) vcan0 1EE#199A076D0B00
(2.510000) vcan0 4F0#01000000000000
(2.510000) vcan0 1F4#00000000440B00
(2.510000) vcan0 1E4#0000000003620B00
(2.510000) vcan0 2E2#0000000000000B00
(2.510000) vcan0 2E4#0D74069400000B00
(2.510000) vcan0 2E6#0DBC069D00000B00
(2.520000) vcan0 1EE#1990076E0C00
(2.520000) vcan0 4F0#01000000000000
(2.520000) vcan0 1F4#00000000440C00
(2.520000) vcan0 1E4#0000000003650C00
(2.520000) vcan0 2E2#0000000000000C00
(2.520000) vcan0 2E4#0DB2069D00000C00
(2.520000) vcan0 2E6#0E00071B00000C00
(2.530000) vcan0 1EE#198607700D00
(2.530000) vcan0 4F0#01000000000000
(2.530000) vcan0 1F4#00000000440D00
(2.530000) vcan0 1E4#0000000003680D00
(2.530000) vcan0 2E2#0000000000000D00
(2.530000) vcan0 2E4#0DF406F600000D00
(2.530000) vcan0 2E6#0DE806F500000D00
(2.540000) vcan0 1EE#197D07720E00
(2.540000) vcan0 4F0#01000000000000
(2.540000) vcan0 1F4#00000000440E00
(2.540000) vcan0 1E4#00000000036C0E00
(2.540000) vcan0 2E2#0000000000000E00
(2.540000) vcan0 2E4#0DF2069400000E00
(2.540000) vcan0 2E6#0D5006C500000E00
(2.550000) vcan0 1EE#197407730F00
(2.550000) vcan0 4F0#01000000000000
(2.550000) vcan0 1F4#00000000440F00
(2.550000) vcan0 1E4#00000000036F0F00
(2.550000) vcan0 2E2#0000000000000F00
(2.550000) vcan0 2E4#0D7C06DF00000F00
(2.550000) vcan0 2E6#0E5406F200000F00
(2.560000) vcan0 1EE#196B07750000
(2.560000) vcan0 4F0#01000000000000
(2.560000) vcan0 1F4#00000000440000
(2.560000) vcan0 1E4#0000000003730000
(2.560000) vcan0 2E2#0000000000000000
(2.560000) vcan0 2E4#0DA006F200000000
(2.560000) vcan0 2E6#0D7206C100000000
(2.570000) vcan0 1EE#196207770100
(2.570000) vcan0 4F0#01000000000000
(2.570000) vcan0 1F4#00000000440100
(2.570000) vcan0 1E4#0000000003760100
(2.570000) vcan0 2E2#0000000000000100
(2.570000) vcan0 2E4#0DE606A700000100
(2.570000) vcan0 2E6#0DF406EB00000100
(2.580000) vcan0 1EE#195907780200
(2.580000) vcan0 4F0#01000000000000
(2.580000) vcan0 1F4#00000000440200
(2.580000) vcan0 1E4#00000000037A0200
(2.580000) vcan0 2E2#0000000000000200
(2.580000) vcan0 2E4#0E8606BA00000200
(2.580000) vcan0 2E6#0D5006AC00000200
(2.590000) vcan0 1EE#1950077A0300
(2.590000) vcan0 4F0#01000000000000
(2.590000) vcan0 1F4#00000000440300
(2.590000) vcan0 1E4#00000000037D0300
(2.590000) vcan0 2E2#0000000000000300
(2.590000) vcan0 2E4#0E6E06BC00000300
(2.590000) vcan0 2E6#0E4606E800000300
(2.600000) vcan0 1EE#1948077C0400
(2.600000) vcan0 4F0#01000000000000
(2.600000) vcan0 1F4#00000000440400
(2.600000) vcan0 1E4#0000000003810400
(2.600000) vcan0 2E2#0000000000000400
(2.600000) vcan0 2E4#0DA6074B00000400
(2.600000) vcan0 2E6#0E7A073600000400
(2.610000) vcan0 1EE#1940077E0500
(2.610000) vcan0 4F0#01000000000000
(2.610000) vcan0 1F4#00000000440500
(2.610000) vcan0 1E4#0000000003840500
(2.610000) vcan0 2E2#0000000000000500
(2.610000) vcan0 2E4#0D9E074800000500
(2.610000) vcan0 2E6#0E1C070800000500
(2.620000) vcan0 1EE#193807800600
(2.620000) vcan0 4F0#01000000000000
(2.620000) vcan0 1F4#00000000440600
(2.620000) vcan0 1E4#0000000003870600
(2.620000) vcan0 2E2#0000000000000600
(2.620000) vcan0 2E4#0E5C06CD00000600
(2.620000) vcan0 2E6#0DDA070500000600
(2.630000) vcan0 1EE#193007810700
(2.630000) vcan0 4F0#01000000000000
(2.630000) vcan0 1F4#00000000440700
(2.630000) vcan0 1E4#00000000038B0700
(2.630000) vcan0 2E2#0000000000000700
(2.630000) vcan0 2E4#0DDA072A00000700
(2.630000) vcan0 2E6#0E0A070100000700
(2.640000) vcan0 1EE#192807830800
(2.640000) vcan0 4F0#01000000000000
(2.640000) vcan0 1F4#00000000440800
(2.640000) vcan0 1E4#00000000038E0800
(2.640000) vcan0 2E2#0000000000000800
(2.640000) vcan0 2E4#0DE2076900000800
(2.640000) vcan0 2E6#0D86072000000800
(2.650000) vcan0 1EE#192107850900
(2.650000) vcan0 4F0#01000000000000
(2.650000) vcan0 1F4#00000000440900
(2.650000) vcan0 1E4#0000000003920900
(2.650000) vcan0 2E2#0000000000000900
(2.650000) vcan0 2E4#0EF8077500000900
(2.650000) vcan0 2E6#0E06075900000900
(2.660000) vcan0 1EE#191907870A00
(2.660000) vcan0 4F0#01000000000000
(2.660000) vcan0 1F4#00000000440A00
(2.660000) vcan0 1E4#0000000003950A00
(2.660000) vcan0 2E2#0000000000000A00
(2.660000) vcan0 2E4#0EC4078500000A00
(2.660000) vcan0 2E6#0E0A074C00000A00
(2.670000) vcan0 1EE#191207890B00
(2.670000) vcan0 4F0#01000000000000
(2.670000) vcan0 1F4#00000000440B00
(2.670000) vcan0 1E4#0000000003990B00
(2.670000) vcan0 2E2#0000000000000B00
(2.670000) vcan0 2E4#0E5A075700000B00
(2.670000) vcan0 2E6#0DB4073C00000B00
(2.680000) vcan0 1EE#190B078B0C00
(2.680000) vcan0 4F0#01000000000000
(2.680000) vcan0 1F4#00000000440C00
(2.680000) vcan0 1E4#00000000039C0C00
(2.680000) vcan0 2E2#0000000000000C00
(2.680000) vcan0 2E4#0E10071300000C00
(2.680000) vcan0 2E6#0ED6076F00000C00
(2.690000) vcan0 1EE#1905078D0D00
(2.690000) vcan0 4F0#01000000000000
(2.690000) vcan0 1F4#00000000440D00
(2.690000) vcan0 1E4#0000000003A00D00
(2.690000) vcan0 2E2#0000000000000D00
(2.690000) vcan0 2E4#0F02072900000D00
(2.690000) vcan0 2E6#0EC2072300000D00
(2.700000) vcan0 1EE#18FE078F0E00
(2.700000) vcan0 4F0#01000000000000
(2.700000) vcan0 1F4#00000000440E00
(2.700000) vcan0 1E4#0000000003A30E00
(2.700000) vcan0 2E2#0000000000000E00
(2.700000) vcan0 2E4#0F18077A00000E00
(2.700000) vcan0 2E6#0E32076700000E00
(2.710000) vcan0 1EE#18F807910F00
(2.710000) vcan0 4F0#01000000000000
(2.710000) vcan0 1F4#00000000440F00
(2.710000) vcan0 1E4#0000000003A60F00
(2.710000) vcan0 2E2#0000000000000F00
(2.710000) vcan0 2E4#0E96076800000F00
(2.710000) vcan0 2E6#0F3606F100000F00
(2.720000) vcan0 1EE#18F207930000
(2.720000) vcan0 4F0#01000000000000
(2.720000) vcan0 1F4#00000000440000
(2.720000) vcan0 1E4#0000000003AA0000
(2.720000) vcan0 2E2#0000000000000000
(2.720000) vcan0 2E4#0E70076D00000000
(2.720000) vcan0 2E6#0E4A071F00000000
(2.730000) vcan0 1EE#18EC07950100
(2.730000) vcan0 4F0#01000000000000
(2.730000) vcan0 1F4#00000000440100
(2.730000) vcan0 1E4#0000000003AD0100
(2.730000) vcan0 2E2#0000000000000100
(2.730000) vcan0 2E4#0E9A079900000100
(2.730000) vcan0 2E6#0F3E07A900000100
(2.740000) vcan0 1EE#18E607970200
(2.740000) vcan0 4F0#01000000000000
(2.740000) vcan0 1F4#00000000440200
(2.740000) vcan0 1E4#0000000003B10200
(2.740000) vcan0 2E2#0000000000000200
(2.740000) vcan0 2E4#0F64077800000200
(2.740000) vcan0 2E6#0E58077200000200
(2.750000) vcan0 1EE#18E107990300
(2.750000) vcan0 4F0#01000000000000
(2.750000) vcan0 1F4#00000000440300
(2.750000) vcan0 1E4#0000000003B40300
(2.750000) vcan0 2E2#0000000000000300
(2.750000) vcan0 2E4#0EA207C600000300
(2.750000) vcan0 2E6#0F04077C00000300
(2.760000) vcan0 1EE#18DB079B0400
(2.760000) vcan0 4F0#01000000000000
(2.760000) vcan0 1F4#00000000440400
(2.760000) vcan0 1E4#0000000003B80400
(2.760000) vcan0 2E2#0000000000000400
(2.760000) vcan0 2E4#0EEE075200000400
(2.760000) vcan0 2E6#0E80072000000400
(2.770000) vcan0 1EE#18D6079D0500
(2.770000) vcan0 4F0#01000000000000
(2.770000) vcan0 1F4#00000000440500
(2.770000) vcan0 1E4#0000000003BB0500
(2.770000) vcan0 2E2#0000000000000500
(2.770000) vcan0 2E4#0F70074600000500
(2.770000) vcan0 2E6#0F02075600000500
(2.780000) vcan0 1EE#18D1079F0600
(2.780000) vcan0 4F0#01000000000000
(2.780000) vcan0 1F4#00000000440600
(2.780000) vcan0 1E4#0000000003BF0600
(2.780000) vcan0 2E2#0000000000000600
(2.780000) vcan0 2E4#0FB007AB00000600
(2.780000) vcan0 2E6#0F28072900000600
(2.790000) vcan0 1EE#18CD07A10700
(2.790000) vcan0 4F0#01000000000000
(2.790000) vcan0 1F4#00000000440700
(2.790000) vcan0 1E4#0000000003C20700
(2.790000) vcan0 2E2#0000000000000700
(2.790000) vcan0 2E4#0E6A07AE00000700
(2.790000) vcan0 2E6#0E92078200000700
(2.800000) vcan0 1EE#18C807A30800
(2.800000) vcan0 4F0#01000000000000
(2.800000) vcan0 1F4#00000000440800
(2.800000) vcan0 1E4#0000000003C60800
(2.800000) vcan0 2E2#0000000000000800
(2.800000) vcan0 2E4#0FAE077A00000800
(2.800000) vcan0 2E6#0EB407B800000800
(2.810000) vcan0 1EE#18C407A50900
(2.810000) vcan0 4F0#01000000000000
(2.810000) vcan0 1F4#00000000440900
(2.810000) vcan0 1E4#0000000003C90900
(2.810000) vcan0 2E2#0000000000000900
(2.810000) vcan0 2E4#0EFE07F100000900
(2.810000) vcan0 2E6#0EBA079100000900
(2.820000) vcan0 1EE#18C007A70A00
(2.820000) vcan0 4F0#01000000000000
(2.820000) vcan0 1F4#00000000440A00
(2.820000) vcan0 1E4#0000000003CC0A00
(2.820000) vcan0 2E2#0000000000000A00
(2.820000) vcan0 2E4#0EA4078000000A00
(2.820000) vcan0 2E6#0EAE075100000A00
(2.830000) vcan0 1EE#18BC07AA0B00
(2.830000) vcan0 4F0#01000000000000
(2.830000) vcan0 1F4#00000000440B00
(2.830000) vcan0 1E4#0000000003D00B00
(2.830000) vcan0 2E2#0000000000000B00
(2.830000) vcan0 2E4#0E86078E00000B00
(2.830000) vcan0 2E6#0F3C076000000B00
(2.840000) vcan0 1EE#18B807AC0C00
(2.840000) vcan0 4F0#01000000000000
(2.840000) vcan0 1F4#00000000440C00
(2.840000) vcan0 1E4#0000000003D30C00
(2.840000) vcan0 2E2#0000000000000C00
(2.840000) vcan0 2E4#0F10075C00000C00
(2.840000) vcan0 2E6#0F2607E500000C00
(2.850000) vcan0 1EE#18B507AE0D00
(2.850000) vcan0 4F0#01000000000000
(2.850000) vcan0 1F4#00000000440D00
(2.850000) vcan0 1E4#0000000003D70D00
(2.850000) vcan0 2E2#0000000000000D00
(2.850000) vcan0 2E4#0F3E075000000D00
(2.850000) vcan0 2E6#0EA2077700000D00
(2.860000) vcan0 1EE#18B207B00E00
(2.860000) vcan0 4F0#01000000000000
(2.860000) vcan0 1F4#00000000440E00
(2.860000) vcan0 1E4#0000000003DA0E00
(2.860000) vcan0 2E2#0000000000000E00
(2.860000) vcan0 2E4#0FB007A000000E00
(2.860000) vcan0 2E6#0FEA07DC00000E00
(2.870000) vcan0 1EE#18AF07B20F00
(2.870000) vcan0 4F0#01000000000000
(2.870000) vcan0 1F4#00000000440F00
(2.870000) vcan0 1E4#0000000003DE0F00
(2.870000) vcan0 2E2#0000000000000F00
(2.870000) vcan0 2E4#0ED0079C00000F00
(2.870000) vcan0 2E6#0F8807F900000F00
(2.880000) vcan0 1EE#18AC07B40000
(2.880000) vcan0 4F0#01000000000000
(2.880000) vcan0 1F4#00000000440000
(2.880000) vcan0 1E4#0000000003E10000
(2.880000) vcan0 2E2#0000000000000000
(2.880000) vcan0 2E4#0F5007D000000000
(2.880000) vcan0 2E6#0F6407D200000000
(2.890000) vcan0 1EE#18A907B70100
(2.890000) vcan0 4F0#01000000000000
(2.890000) vcan0 1F4#00000000440100
(2.890000) vcan0 1E4#0000000003E50100
(2.890000) vcan0 2E2#0000000000000100
(2.890000) vcan0 2E4#0ED4079800000100
(2.890000) vcan0 2E6#104C07E900000100
(2.900000) vcan0 1EE#18A707B90200
(2.900000) vcan0 4F0#01000000000000
(2.900000) vcan0 1F4#00000000440200
(2.900000) vcan0 1E4#0000000003E80200
(2.900000) vcan0 2E2#0000000000000200
(2.900000) vcan0 2E4#0F22077200000200
(2.900000) vcan0 2E6#0F4A077800000200
(2.910000) vcan0 1EE#18A507BB0300
(2.910000) vcan0 4F0#01000000000000
(2.910000) vcan0 1F4#00000000440300
(2.910000) vcan0 1E4#0000000003EB0300
(2.910000) vcan0 2E2#0000000000000300
(2.910000) vcan0 2E4#0EEE082C00000300
(2.910000) vcan0 2E6#0F64082D00000300
(2.920000) vcan0 1EE#18A307BD0400
(2.920000) vcan0 4F0#01000000000000
(2.920000) vcan0 1F4#00000000440400
(2.920000) vcan0 1E4#0000000003EF0400
(2.920000) vcan0 2E2#0000000000000400
(2.920000) vcan0 2E4#0F14077E00000400
(2.920000) vcan0 2E6#102A07E000000400
(2.930000) vcan0 1EE#18A107BF0500
(2.930000) vcan0 4F0#01000000000000
(2.930000) vcan0 1F4#00000000440500
(2.930000) vcan0 1E4#0000000003F20500
(2.930000) vcan0 2E2#0000000000000500
(2.930000) vcan0 2E4#106207A100000500
(2.930000) vcan0 2E6#1088080500000500
(2.940000) vcan0 1EE#18A007C20600
(2.940000) vcan0 4F0#01000000000000
(2.940000) vcan0 1F4#00000000440600
(2.940000) vcan0 1E4#0000000003F60600
(2.940000) vcan0 2E2#0000000000000600
(2.940000) vcan0 2E4#0FB407E100000600
(2.940000) vcan0 2E6#103607D900000600
(2.950000) vcan0 1EE#189F07C40700
(2.950000) vcan0 4F0#01000000000000
(2.950000) vcan0 1F4#00000000440700
(2.950000) vcan0 1E4#0000000003F90700
(2.950000) vcan0 2E2#0000000000000700
(2.950000) vcan0 2E4#0F6007E800000700
(2.950000) vcan0 2E6#107407A300000700
(2.960000) vcan0 1EE#189E07C60800
(2.960000) vcan0 4F0#01000000000000
(2.960000) vcan0 1F4#00000000440800
(2.960000) vcan0 1E4#0000000003FD0800
(2.960000) vcan0 2E2#0000000000000800
(2.960000) vcan0 2E4#1092082200000800
(2.960000) vcan0 2E6#0FE807D600000800
(2.970000) vcan0 1EE#189D07C80900
(2.970000) vcan0 4F0#01000000000000
(2.970000) vcan0 1F4#00000000440900
(2.970000) vcan0 1E4#0000000004000900
(2.970000) vcan0 2E2#0000000000000900
(2.970000) vcan0 2E4#100007DA00000900
(2.970000) vcan0 2E6#0F8407FB00000900
(2.980000) vcan0 1EE#189C07CA0A00
(2.980000) vcan0 4F0#01000000000000
(2.980000) vcan0 1F4#00000000440A00
(2.980000) vcan0 1E4#0000000004040A00
(2.980000) vcan0 2E2#0000000000000A00
(2.980000) vcan0 2E4#0FB207A500000A00
(2.980000) vcan0 2E6#103C07E300000A00
(2.990000) vcan0 1EE#189C07CD0B00
(2.990000) vcan0 4F0#01000000000000
(2.990000) vcan0 1F4#00000000440B00
(2.990000) vcan0 1E4#0000000004070B00
(2.990000) vcan0 2E2#0000000000000B00
(2.990000) vcan0 2E4#0F9807B300000B00
(2.990000) vcan0 2E6#1062081F00000B00
(3.000000) vcan0 1EE#189C07CF0C00
(3.000000) vcan0 4F0#01000000000000
(3.000000) vcan0 1F4#00000000440C00
(3.000000) vcan0 1E4#00000000040A0C00
(3.000000) vcan0 2E2#0000000000000C00
(3.000000) vcan0 2E4#105C07DF00000C00
(3.000000) vcan0 2E6#10C2080A00000C00
(3.010000) vcan0 1EE#189C07D10D00
(3.010000) vcan0 4F0#01000000000000
(3.010000) vcan0 1F4#00000000440D00
(3.010000) vcan0 1E4#00000000040A0D00
(3.010000) vcan0 2E2#0000000000000D00
(3.010000) vcan0 2E4#0FCA080C00000D00
(3.010000) vcan0 2E6#101C07C300000D00
(3.020000) vcan0 1EE#189C07D30E00
(3.020000) vcan0 4F0#01000000000000
(3.020000) vcan0 1F4#00000000440E00
(3.020000) vcan0 1E4#00000000040A0E00
(3.020000) vcan0 2E2#0000000000000E00
(3.020000) vcan0 2E4#0FEE084B00000E00
(3.020000) vcan0 2E6#0F90083C00000E00
(3.030000) vcan0 1EE#189D07D60F00
(3.030000) vcan0 4F0#01000000000000
(3.030000) vcan0 1F4#00000000440F00
(3.030000) vcan0 1E4#00000000040A0F00
(3.030000) vcan0 2E2#0000000000000F00
(3.030000) vcan0 2E4#0FEA085100000F00
(3.030000) vcan0 2E6#0F74085300000F00
(3.040000) vcan0 1EE#189E07D80000
(3.040000) vcan0 4F0#01000000000000
(3.040000) vcan0 1F4#00000000440000
(3.040000) vcan0 1E4#00000000040A0000
(3.040000) vcan0 2E2#0000000000000000
(3.040000) vcan0 2E4#109E083C00000000
(3.040000) vcan0 2E6#103207E100000000
(3.050000) vcan0 1EE#189F07DA0100
(3.050000) vcan0 4F0#01000000000000
(3.050000) vcan0 1F4#00000000440100
(3.050000) vcan0 1E4#00000000040A0100
(3.050000) vcan0 2E2#0000000000000100
(3.050000) vcan0 2E4#1058084F00000100
(3.050000) vcan0 2E6#1034080900000100
(3.060000) vcan0 1EE#18A007DC0200
(3.060000) vcan0 4F0#01000000000000
(3.060000) vcan0 1F4#00000000440200
(3.060000) vcan0 1E4#00000000040A0200
(3.060000) vcan0 2E2#0000000000000200
(3.060000) vcan0 2E4#0FDC07EC00000200
(3.060000) vcan0 2E6#0FAC07E100000200
(3.070000) vcan0 1EE#18A107DE0300
(3.070000) vcan0 4F0#01000000000000
(3.070000) vcan0 1F4#00000000440300
(3.070000) vcan0 1E4#00000000040A0300
(3.070000) vcan0 2E2#0000000000000300
(3.070000) vcan0 2E4#1030083E00000300
(3.070000) vcan0 2E6#1002084400000300
(3.080000) vcan0 1EE#18A307E10400
(3.080000) vcan0 4F0#01000000000000
(3.080000) vcan0 1F4#00000000440400
(3.080000) vcan0 1E4#00000000040A0400
(3.080000) vcan0 2E2#0000000000000400
(3.080000) vcan0 2E4#10D0086100000400
(3.080000) vcan0 2E6#0FAE07B600000400
(3.090000) vcan0 1EE#18A507E30500
(3.090000) vcan0 4F0#01000000000000
(3.090000) vcan0 1F4#00000000440500
(3.090000) vcan0 1E4#00000000040A0500
(3.090000) vcan0 2E2#0000000000000500
(3.090000) vcan0 2E4#1042083900000500
(3.090000) vcan0 2E6#1000086C00000500
(3.100000) vcan0 1EE#18A707E50600
(3.100000) vcan0 4F0#01000000000000
(3.100000) vcan0 1F4#00000000440600
(3.100000) vcan0 1E4#00000000040A0600
(3.100000) vcan0 2E2#0000000000000600
(3.100000) vcan0 2E4#106207CE00000600
(3.100000) vcan0 2E6#1082086500000600
(3.110000) vcan0 1EE#18A907E70700
(3.110000) vcan0 4F0#01000000000000
(3.110000) vcan0 1F4#00000000440700
(3.110000) vcan0 1E4#00000000040A0700
(3.110000) vcan0 2E2#0000000000000700
(3.110000) vcan0 2E4#0FEE07F900000700
(3.110000) vcan0 2E6#0FEE084200000700
(3.120000) vcan0 1EE#18AC07E90800
(3.120000) vcan0 4F0#01000000000000
(3.120000) vcan0 1F4#00000000440800
(3.120000) vcan0 1E4#00000000040A0800
(3.120000) vcan0 2E2#0000000000000800
(3.120000) vcan0 2E4#10AC086E00000800
(3.120000) vcan0 2E6#10F8087500000800
(3.130000) vcan0 1EE#18AF07EC0900
(3.130000) vcan0 4F0#01000000000000
(3.130000) vcan0 1F4#00000000440900
(3.130000) vcan0 1E4#00000000040A0900
(3.130000) vcan0 2E2#0000000000000900
(3.130000) vcan0 2E4#0F8407E300000900
(3.130000) vcan0 2E6#100C07BE00000900
(3.140000) vcan0 1EE#18B207EE0A00
(3.140000) vcan0 4F0#01000000000000
(3.140000) vcan0 1F4#00000000440A00
(3.140000) vcan0 1E4#00000000040A0A00
(3.140000) vcan0 2E2#0000000000000A00
(3.140000) vcan0 2E4#105E081600000A00
(3.140000) vcan0 2E6#0F8407EE00000A00
(3.150000) vcan0 1EE#18B507F00B00
(3.150000) vcan0 4F0#01000000000000
(3.150000) vcan0 1F4#00000000440B00
(3.150000) vcan0 1E4#00000000040A0B00
(3.150000) vcan0 2E2#0000000000000B00
(3.150000) vcan0 2E4#1090085400000B00
(3.150000) vcan0 2E6#0F82080800000B00
(3.160000) vcan0 1EE#18B807F20C00
(3.160000) vcan0 4F0#01000000000000
(3.160000) vcan0 1F4#00000000440C00
(3.160000) vcan0 1E4#00000000040A0C00
(3.160000) vcan0 2E2#0000000000000C00
(3.160000) vcan0 2E4#0F9C086500000C00
(3.160000) vcan0 2E6#1024082C00000C00
(3.170000) vcan0 1EE#18BC07F40D00
(3.170000) vcan0 4F0#01000000000000
(3.170000) vcan0 1F4#00000000440D00
(3.170000) vcan0 1E4#00000000040A0D00
(3.170000) vcan0 2E2#0000000000000D00
(3.170000) vcan0 2E4#0FCA07FA00000D00
(3.170000) vcan0 2E6#0FC2082800000D00
(3.180000) vcan0 1EE#18C007F60E00
(3.180000) vcan0 4F0#01000000000000
(3.180000) vcan0 1F4#00000000440E00
(3.180000) vcan0 1E4#00000000040A0E00
(3.180000) vcan0 2E2#0000000000000E00
(3.180000) vcan0 2E4#0F6C082300000E00
(3.180000) vcan0 2E6#0FB6086600000E00
(3.190000) vcan0 1EE#18C407F90F00
(3.190000) vcan0 4F0#01000000000000
(3.190000) vcan0 1F4#00000000440F00
(3.190000) vcan0 1E4#00000000040A0F00
(3.190000) vcan0 2E2#0000000000000F00
(3.190000) vcan0 2E4#10CC083E00000F00
(3.190000) vcan0 2E6#0F66086500000F00
(3.200000) vcan0 1EE#18C807FB0000
(3.200000) vcan0 4F0#01000000000000
(3.200000) vcan0 1F4#00000000440000
(3.200000) vcan0 1E4#00000000040A0000
(3.200000) vcan0 2E2#0000000000000000
(3.200000) vcan0 2E4#106A07BE00000000
(3.200000) vcan0 2E6#1090085200000000
(3.210000) vcan0 1EE#18CD07FD0100
(3.210000) vcan0 4F0#01000000000000
(3.210000) vcan0 1F4#00000000440100
(3.210000) vcan0 1E4#00000000040A0100
(3.210000) vcan0 2E2#0000000000000100
(3.210000) vcan0 2E4#0FB6087800000100
(3.210000) vcan0 2E6#106607D200000100
(3.220000) vcan0 1EE#18D107FF0200
(3.220000) vcan0 4F0#01000000000000
(3.220000) vcan0 1F4#00000000440200
(3.220000) vcan0 1E4#00000000040A0200
(3.220000) vcan0 2E2#0000000000000200
(3.220000) vcan0 2E4#0F64080E00000200
(3.220000) vcan0 2E6#10D4086800000200
(3.230000) vcan0 1EE#18D608010300
(3.230000) vcan0 4F0#01000000000000
(3.230000) vcan0 1F4#00000000440300
(3.230000) vcan0 1E4#00000000040A0300
(3.230000) vcan0 2E2#0000000000000300
(3.230000) vcan0 2E4#101807C700000300
(3.230000) vcan0 2E6#109007C400000300
(3.240000) vcan0 1EE#18DB08030400
(3.240000) vcan0 4F0#01000000000000
(3.240000) vcan0 1F4#00000000440400
(3.240000) vcan0 1E4#00000000040A0400
(3.240000) vcan0 2E2#0000000000000400
(3.240000) vcan0 2E4#0FAC081D00000400
(3.240000) vcan0 2E6#0FE407D200000400
(3.250000) vcan0 1EE#18E108050500
(3.250000) vcan0 4F0#01000000000000
(3.250000) vcan0 1F4#00000000440500
(3.250000) vcan0 1E4#00000000040A0500
(3.250000) vcan0 2E2#0000000000000500
(3.250000) vcan0 2E4#1028081200000500
(3.250000) vcan0 2E6#104407E400000500
(3.260000) vcan0 1EE#18E608070600
(3.260000) vcan0 4F0#01000000000000
(3.260000) vcan0 1F4#00000000440600
(3.260000) vcan0 1E4#00000000040A0600
(3.260000) vcan0 2E2#0000000000000600
(3.260000) vcan0 2E4#105E083900000600
(3.260000) vcan0 2E6#10E207D300000600
(3.270000) vcan0 1EE#18EC08090700
(3.270000) vcan0 4F0#01000000000000
(3.270000) vcan0 1F4#00000000440700
(3.270000) vcan0 1E4#00000000040A0700
(3.270000) vcan0 2E2#0000000000000700
(3.270000) vcan0 2E4#101A081900000700
(3.270000) vcan0 2E6#0F96084C00000700
(3.280000) vcan0 1EE#18F2080B0800
(3.280000) vcan0 4F0#01000000000000
(3.280000) vcan0 1F4#00000000440800
(3.280000) vcan0 1E4#00000000040A0800
(3.280000) vcan0 2E2#0000000000000800
(3.280000) vcan0 2E4#10CE086F00000800
(3.280000) vcan0 2E6#108E084400000800
(3.290000) vcan0 1EE#18F8080D0900
(3.290000) vcan0 4F0#01000000000000
(3.290000) vcan0 1F4#00000000440900
(3.290000) vcan0 1E4#00000000040A0900
(3.290000) vcan0 2E2#0000000000000900
(3.290000) vcan0 2E4#0FF807F000000900
(3.290000) vcan0 2E6#0F84081D00000900
(3.300000) vcan0 1EE#18FE080F0A00
(3.300000) vcan0 4F0#01000000000000
(3.300000) vcan0 1F4#00000000440A00
(3.300000) vcan0 1E4#00000000040A0A00
(3.300000) vcan0 2E2#0000000000000A00
(3.300000) vcan0 2E4#100807E600000A00
(3.300000) vcan0 2E6#1060080B00000A00
(3.310000) vcan0 1EE#190508110B00
(3.310000) vcan0 4F0#01000000000000
(3.310000) vcan0 1F4#00000000440B00
(3.310000) vcan0 1E4#00000000040A0B00
(3.310000) vcan0 2E2#0000000000000B00
(3.310000) vcan0 2E4#0FA0081500000B00
(3.310000) vcan0 2E6#100A080A00000B00
(3.320000) vcan0 1EE#190B08130C00
(3.320000) vcan0 4F0#01000000000000
(3.320000) vcan0 1F4#00000000440C00
(3.320000) vcan0 1E4#00000000040A0C00
(3.320000) vcan0 2E2#0000000000000C00
(3.320000) vcan0 2E4#0FDE084200000C00
(3.320000) vcan0 2E6#108407EA00000C00
(3.330000) vcan0 1EE#191208150D00
(3.330000) vcan0 4F0#01000000000000
(3.330000) vcan0 1F4#00000000440D00
(3.330000) vcan0 1E4#00000000040A0D00
(3.330000) vcan0 2E2#0000000000000D00
(3.330000) vcan0 2E4#102207DB00000D00
(3.330000) vcan0 2E6#107A07CC00000D00
(3.340000) vcan0 1EE#191908170E00
(3.340000) vcan0 4F0#01000000000000
(3.340000) vcan0 1F4#00000000440E00
(3.340000) vcan0 1E4#00000000040A0E00
(3.340000) vcan0 2E2#0000000000000E00
(3.340000) vcan0 2E4#100A087200000E00
(3.340000) vcan0 2E6#0FEE081400000E00
(3.350000) vcan0 1EE#192108190F00
(3.350000) vcan0 4F0#01000000000000
(3.350000) vcan0 1F4#00000000440F00
(3.350000) vcan0 1E4#00000000040A0F00
(3.350000) vcan0 2E2#0000000000000F00
(3.350000) vcan0 2E4#10D007C200000F00
(3.350000) vcan0 2E6#1060084800000F00
(3.360000) vcan0 1EE#1928081B0000
(3.360000) vcan0 4F0#01000000000000
(3.360000) vcan0 1F4#00000000440000
(3.360000) vcan0 1E4#00000000040A0000
(3.360000) vcan0 2E2#0000000000000000
(3.360000) vcan0 2E4#10F007E700000000
(3.360000) vcan0 2E6#0FA6085D00000000
(3.370000) vcan0 1EE#1930081D0100
(3.370000) vcan0 4F0#01000000000000
(3.370000) vcan0 1F4#00000000440100
(3.370000) vcan0 1E4#00000000040A0100
(3.370000) vcan0 2E2#0000000000000100
(3.370000) vcan0 2E4#10B007E800000100
(3.370000) vcan0 2E6#108407D600000100
(3.380000) vcan0 1EE#1938081F0200
(3.380000) vcan0 4F0#01000000000000
(3.380000) vcan0 1F4#00000000440200
(3.380000) vcan0 1E4#00000000040A0200
(3.380000) vcan0 2E2#0000000000000200
(3.380000) vcan0 2E4#0FB4081C00000200
(3.380000) vcan0 2E6#0F9E083600000200
(3.390000) vcan0 1EE#194008200300
(3.390000) vcan0 4F0#01000000000000
(3.390000) vcan0 1F4#00000000440300
(3.390000) vcan0 1E4#00000000040A0300
(3.390000) vcan0 2E2#0000000000000300
(3.390000) vcan0 2E4#10BC084D00000300
(3.390000) vcan0 2E6#10C4087B00000300
(3.400000) vcan0 1EE#194808220400
(3.400000) vcan0 4F0#01000000000000
(3.400000) vcan0 1F4#00000000440400
(3.400000) vcan0 1E4#00000000040A0400
(3.400000) vcan0 2E2#0000000000000400
(3.400000) vcan0 2E4#1064081100000400
(3.400000) vcan0 2E6#0F9E081E00000400
(3.410000) vcan0 1EE#195008240500
(3.410000) vcan0 4F0#01000000000000
(3.410000) vcan0 1F4#00000000440500
(3.410000) vcan0 1E4#00000000040A0500
(3.410000) vcan0 2E2#0000000000000500
(3.410000) vcan0 2E4#0FD8084700000500
(3.410000) vcan0 2E6#0FFA084C00000500
(3.420000) vcan0 1EE#195908260600
(3.420000) vcan0 4F0#01000000000000
(3.420000) vcan0 1F4#00000000440600
(3.420000) vcan0 1E4#00000000040A0600
(3.420000) vcan0 2E2#0000000000000600
(3.420000) vcan0 2E4#10B2085E00000600
(3.420000) vcan0 2E6#1002086200000600
(3.430000) vcan0 1EE#196208280700
(3.430000) vcan0 4F0#01000000000000
(3.430000) vcan0 1F4#00000000440700
(3.430000) vcan0 1E4#00000000040A0700
(3.430000) vcan0 2E2#0000000000000700
(3.430000) vcan0 2E4#1082084E00000700
(3.430000) vcan0 2E6#1082083700000700
(3.440000) vcan0 1EE#196B08290800
(3.440000) vcan0 4F0#01000000000000
(3.440000) vcan0 1F4#00000000440800
(3.440000) vcan0 1E4#00000000040A0800
(3.440000) vcan0 2E2#0000000000000800
(3.440000) vcan0 2E4#1074086400000800
(3.440000) vcan0 2E6#104C087A00000800
(3.450000) vcan0 1EE#1974082B0900
(3.450000) vcan0 4F0#01000000000000
(3.450000) vcan0 1F4#00000000440900
(3.450000) vcan0 1E4#00000000040A0900
(3.450000) vcan0 2E2#0000000000000900
(3.450000) vcan0 2E4#101E087500000900
(3.450000) vcan0 2E6#1008086300000900
(3.460000) vcan0 1EE#197D082D0A00
(3.460000) vcan0 4F0#01000000000000
(3.460000) vcan0 1F4#00000000440A00
(3.460000) vcan0 1E4#00000000040A0A00
(3.460000) vcan0 2E2#0000000000000A00
(3.460000) vcan0 2E4#0FCC085200000A00
(3.460000) vcan0 2E6#1056084B00000A00
(3.470000) vcan0 1EE#1986082E0B00
(3.470000) vcan0 4F0#01000000000000
(3.470000) vcan0 1F4#00000000440B00
(3.470000) vcan0 1E4#00000000040A0B00
(3.470000) vcan0 2E2#0000000000000B00
(3.470000) vcan0 2E4#1090081C00000B00
(3.470000) vcan0 2E6#0F9C082F00000B00
(3.480000) vcan0 1EE#199008300C00
(3.480000) vcan0 4F0#01000000000000
(3.480000) vcan0 1F4#00000000440C00
(3.480000) vcan0 1E4#00000000040A0C00
(3.480000) vcan0 2E2#0000000000000C00
(3.480000) vcan0 2E4#1040085200000C00
(3.480000) vcan0 2E6#0F9407F000000C00
(3.490000) vcan0 1EE#199A08320D00
(3.490000) vcan0 4F0#01000000000000
(3.490000) vcan0 1F4#00000000440D00
(3.490000) vcan0 1E4#00000000040A0D00
(3.490000) vcan0 2E2#0000000000000D00
(3.490000) vcan0 2E4#0FDC083E00000D00
(3.490000) vcan0 2E6#0FB807B800000D00
(3.500000) vcan0 1EE#19A408330E00
(3.500000) vcan0 4F0#01000000000000
(3.500000) vcan0 1F4#00000000440E00
(3.500000) vcan0 1E4#00000000040A0E00
(3.500000) vcan0 2E2#0000000000000E00
(3.500000) vcan0 2E4#10D6083000000E00
(3.500000) vcan0 2E6#0FEC07C000000E00
(3.510000) vcan0 1EE#19AE08350F00
(3.510000) vcan0 4F0#01000000000000
(3.510000) vcan0 1F4#00000000440F00
(3.510000) vcan0 1E4#00000000040A0F00
(3.510000) vcan0 2E2#0000000000000F00
(3.510000) vcan0 2E4#0FE2086600000F00
(3.510000) vcan0 2E6#0F82082400000F00
(3.520000) vcan0 1EE#19B808360000
(3.520000) vcan0 4F0#01000000000000
(3.520000) vcan0 1F4#00000000440000
(3.520000) vcan0 1E4#00000000040A0000
(3.520000) vcan0 2E2#0000000000000000
(3.520000) vcan0 2E4#10A4084000000000
(3.520000) vcan0 2E6#105607F100000000
(3.530000) vcan0 1EE#19C208380100
(3.530000) vcan0 4F0#01000000000000
(3.530000) vcan0 1F4#00000000440100
(3.530000) vcan0 1E4#00000000040A0100
(3.530000) vcan0 2E2#0000000000000100
(3.530000) vcan0 2E4#103A086700000100
(3.530000) vcan0 2E6#0FC8086300000100
(3.540000) vcan0 1EE#19CD08390200
(3.540000) vcan0 4F0#01000000000000
(3.540000) vcan0 1F4#00000000440200
(3.540000) vcan0 1E4#00000000040A0200
(3.540000) vcan0 2E2#0000000000000200
(3.540000) vcan0 2E4#10A407D400000200
(3.540000) vcan0 2E6#0FAA081600000200
(3.550000) vcan0 1EE#19D7083B0300
(3.550000) vcan0 4F0#01000000000000
(3.550000) vcan0 1F4#00000000440300
(3.550000) vcan0 1E4#00000000040A0300
(3.550000) vcan0 2E2#0000000000000300
(3.550000) vcan0 2E4#0FA2087500000300
(3.550000) vcan0 2E6#10C6080100000300
(3.560000) vcan0 1EE#19E2083C0400
(3.560000) vcan0 4F0#01000000000000
(3.560000) vcan0 1F4#00000000440400
(3.560000) vcan0 1E4#00000000040A0400
(3.560000) vcan0 2E2#0000000000000400
(3.560000) vcan0 2E4#0F94081700000400
(3.560000) vcan0 2E6#0F9207EC00000400
(3.570000) vcan0 1EE#19ED083E0500
(3.570000) vcan0 4F0#01000000000000
(3.570000) vcan0 1F4#00000000440500
(3.570000) vcan0 1E4#00000000040A0500
(3.570000) vcan0 2E2#0000000000000500
(3.570000) vcan0 2E4#0FAA07F100000500
(3.570000) vcan0 2E6#1014086700000500
(3.580000) vcan0 1EE#19F8083F0600
(3.580000) vcan0 4F0#01000000000000
(3.580000) vcan0 1F4#00000000440600
(3.580000) vcan0 1E4#00000000040A0600
(3.580000) vcan0 2E2#0000000000000600
(3.580000) vcan0 2E4#0F6E07E800000600
(3.580000) vcan0 2E6#10A4084100000600
(3.590000) vcan0 1EE#1A0408400700
(3.590000) vcan0 4F0#01000000000000
(3.590000) vcan0 1F4#00000000440700
(3.590000) vcan0 1E4#00000000040A0700
(3.590000) vcan0 2E2#0000000000000700
(3.590000) vcan0 2E4#0FEE07F600000700
(3.590000) vcan0 2E6#1032082E00000700
(3.600000) vcan0 1EE#1A0F08420800
(3.600000) vcan0 4F0#01000000000000
(3.600000) vcan0 1F4#00000000440800
(3.600000) vcan0 1E4#00000000040A0800
(3.600000) vcan0 2E2#0000000000000800
(3.600000) vcan0 2E4#0FF4084700000800
(3.600000) vcan0 2E6#0FA007D500000800
(3.610000) vcan0 1EE#1A1A08430900
(3.610000) vcan0 4F0#01000000000000
(3.610000) vcan0 1F4#00000000440900
(3.610000) vcan0 1E4#00000000040A0900
(3.610000) vcan0 2E2#0000000000000900
(3.610000) vcan0 2E4#1030083A00000900
(3.610000) vcan0 2E6#0FBA07C500000900
(3.620000) vcan0 1EE#1A2608440A00
(3.620000) vcan0 4F0#01000000000000
(3.620000) vcan0 1F4#00000000440A00
(3.620000) vcan0 1E4#00000000040A0A00
(3.620000) vcan0 2E2#0000000000000A00
(3.620000) vcan0 2E4#0FBE084300000A00
(3.620000) vcan0 2E6#10C8080900000A00
(3.630000) vcan0 1EE#1A3208460B00
(3.630000) vcan0 4F0#01000000000000
(3.630000) vcan0 1F4#00000000440B00
(3.630000) vcan0 1E4#00000000040A0B00
(3.630000) vcan0 2E2#0000000000000B00
(3.630000) vcan0 2E4#10BA083D00000B00
(3.630000) vcan0 2E6#10EA07C000000B00
(3.640000) vcan0 1EE#1A3E08470C00
(3.640000) vcan0 4F0#01000000000000
(3.640000) vcan0 1F4#00000000440C00
(3.640000) vcan0 1E4#00000000040A0C00
(3.640000) vcan0 2E2#0000000000000C00
(3.640000) vcan0 2E4#10F4082600000C00
(3.640000) vcan0 2E6#0FC8083500000C00
(3.650000) vcan0 1EE#1A4A08480D00
(3.650000) vcan0 4F0#01000000000000
(3.650000) vcan0 1F4#00000000440D00
(3.650000) vcan0 1E4#00000000040A0D00
(3.650000) vcan0 2E2#0000000000000D00
(3.650000) vcan0 2E4#10F8080400000D00
(3.650000) vcan0 2E6#10B8084700000D00
(3.660000) vcan0 1EE#1A5608490E00
(3.660000) vcan0 4F0#01000000000000
(3.660000) vcan0 1F4#00000000440E00
(3.660000) vcan0 1E4#00000000040A0E00
(3.660000) vcan0 2E2#0000000000000E00
(3.660000) vcan0 2E4#10A007D800000E00
(3.660000) vcan0 2E6#0FCC080C00000E00
(3.670000) vcan0 1EE#1A62084A0F00
(3.670000) vcan0 4F0#01000000000000
(3.670000) vcan0 1F4#00000000440F00
(3.670000) vcan0 1E4#00000000040A0F00
(3.670000) vcan0 2E2#0000000000000F00
(3.670000) vcan0 2E4#10A407C300000F00
(3.670000) vcan0 2E6#0FB2085000000F00
(3.680000) vcan0 1EE#1A6E084B0000
(3.680000) vcan0 4F0#01000000000000
(3.680000) vcan0 1F4#00000000440000
(3.680000) vcan0 1E4#00000000040A0000
(3.680000) vcan0 2E2#0000000000000000
(3.680000) vcan0 2E4#0F9C07F200000000
(3.680000) vcan0 2E6#0FB407D800000000
(3.690000) vcan0 1EE#1A7B084C0100
(3.690000) vcan0 4F0#01000000000000
(3.690000) vcan0 1F4#00000000440100
(3.690000) vcan0 1E4#00000000040A0100
(3.690000) vcan0 2E2#0000000000000100
(3.690000) vcan0 2E4#105A07D000000100
(3.690000) vcan0 2E6#0FD407BF00000100
(3.700000) vcan0 1EE#1A87084D0200
(3.700000) vcan0 4F0#01000000000000
(3.700000) vcan0 1F4#00000000440200
(3.700000) vcan0 1E4#00000000040A0200
(3.700000) vcan0 2E2#0000000000000200
(3.700000) vcan0 2E4#0FBA081B00000200
(3.700000) vcan0 2E6#1036085C00000200
(3.710000) vcan0 1EE#1A94084E0300
(3.710000) vcan0 4F0#01000000000000
(3.710000) vcan0 1F4#00000000440300
(3.710000) vcan0 1E4#00000000040A0300
(3.710000) vcan0 2E2#0000000000000300
(3.710000) vcan0 2E4#1030086000000300
(3.710000) vcan0 2E6#10A607EA00000300
(3.720000) vcan0 1EE#1AA1084F0400
(3.720000) vcan0 4F0#01000000000000
(3.720000) vcan0 1F4#00000000440400
(3.720000) vcan0 1E4#00000000040A0400
(3.720000) vcan0 2E2#0000000000000400
(3.720000) vcan0 2E4#1036085A00000400
(3.720000) vcan0 2E6#101C07F300000400
(3.730000) vcan0 1EE#1AAE08500500
(3.730000) vcan0 4F0#01000000000000
(3.730000) vcan0 1F4#00000000440500
(3.730000) vcan0 1E4#00000000040A0500
(3.730000) vcan0 2E2#0000000000000500
(3.730000) vcan0 2E4#107A07D900000500
(3.730000) vcan0 2E6#100A07C300000500
(3.740000) vcan0 1EE#1ABB08510600
(3.740000) vcan0 4F0#01000000000000
(3.740000) vcan0 1F4#00000000440600
(3.740000) vcan0 1E4#00000000040A0600
(3.740000) vcan0 2E2#0000000000000600
(3.740000) vcan0 2E4#106607E200000600
(3.740000) vcan0 2E6#0F8C07D400000600
(3.750000) vcan0 1EE#1AC808520700
(3.750000) vcan0 4F0#01000000000000
(3.750000) vcan0 1F4#00000000440700
(3.750000) vcan0 1E4#00000000040A0700
(3.750000) vcan0 2E2#0000000000000700
(3.750000) vcan0 2E4#1050080400000700
(3.750000) vcan0 2E6#0FE4081E00000700
(3.760000) vcan0 1EE#1AD508530800
(3.760000) vcan0 4F0#01000000000000
(3.760000) vcan0 1F4#00000000440800
(3.760000) vcan0 1E4#00000000040A0800
(3.760000) vcan0 2E2#0000000000000800
(3.760000) vcan0 2E4#0FF8086900000800
(3.760000) vcan0 2E6#103C081000000800
(3.770000) vcan0 1EE#1AE208540900
(3.770000) vcan0 4F0#01000000000000
(3.770000) vcan0 1F4#00000000440900
(3.770000) vcan0 1E4#00000000040A0900
(3.770000) vcan0 2E2#0000000000000900
(3.770000) vcan0 2E4#0FF8082C00000900
(3.770000) vcan0 2E6#10B4083A00000900
(3.780000) vcan0 1EE#1AEF08550A00
(3.780000) vcan0 4F0#01000000000000
(3.780000) vcan0 1F4#00000000440A00
(3.780000) vcan0 1E4#00000000040A0A00
(3.780000) vcan0 2E2#0000000000000A00
(3.780000) vcan0 2E4#1052084100000A00
(3.780000) vcan0 2E6#0FC607EC00000A00
(3.790000) vcan0 1EE#1AFC08550B00
(3.790000) vcan0 4F0#01000000000000
(3.790000) vcan0 1F4#00000000440B00
(3.790000) vcan0 1E4#00000000040A0B00
(3.790000) vcan0 2E2#0000000000000B00
(3.790000) vcan0 2E4#100C07BE00000B00
(3.790000) vcan0 2E6#105407F300000B00
(3.800000) vcan0 1EE#1B0A08560C00
(3.800000) vcan0 4F0#01000000000000
(3.800000) vcan0 1F4#00000000440C00
(3.800000) vcan0 1E4#00000000040A0C00
(3.800000) vcan0 2E2#0000000000000C00
(3.800000) vcan0 2E4#107A086000000C00
(3.800000) vcan0 2E6#1022084300000C00
(3.810000) vcan0 1EE#1B1708570D00
(3.810000) vcan0 4F0#01000000000000
(3.810000) vcan0 1F4#00000000440D00
(3.810000) vcan0 1E4#00000000040A0D00
(3.810000) vcan0 2E2#0000000000000D00
(3.810000) vcan0 2E4#10CC080B00000D00
(3.810000) vcan0 2E6#107607DD00000D00
(3.820000) vcan0 1EE#1B2508570E00
(3.820000) vcan0 4F0#01000000000000
(3.820000) vcan0 1F4#00000000440E00
(3.820000) vcan0 1E4#00000000040A0E00
(3.820000) vcan0 2E2#0000000000000E00
(3.820000) vcan0 2E4#1092084F00000E00
(3.820000) vcan0 2E6#0F62085800000E00
(3.830000) vcan0 1EE#1B3308580F00
(3.830000) vcan0 4F0#01000000000000
(3.830000) vcan0 1F4#00000000440F00
(3.830000) vcan0 1E4#00000000040A0F00
(3.830000) vcan0 2E2#0000000000000F00
(3.830000) vcan0 2E4#0F6A080F00000F00
(3.830000) vcan0 2E6#0F9C080500000F00
(3.840000) vcan0 1EE#1B4008590000
(3.840000) vcan0 4F0#01000000000000
(3.840000) vcan0 1F4#00000000440000
(3.840000) vcan0 1E4#00000000040A0000
(3.840000) vcan0 2E2#0000000000000000
(3.840000) vcan0 2E4#0FA807E100000000
(3.840000) vcan0 2E6#0F62086A00000000
(3.850000) vcan0 1EE#1B4E08590100
(3.850000) vcan0 4F0#01000000000000
(3.850000) vcan0 1F4#00000000440100
(3.850000) vcan0 1E4#00000000040A0100
(3.850000) vcan0 2E2#0000000000000100
(3.850000) vcan0 2E4#10AE086000000100
(3.850000) vcan0 2E6#10EA086B00000100
(3.860000) vcan0 1EE#1B5C085A0200
(3.860000) vcan0 4F0#01000000000000
(3.860000) vcan0 1F4#00000000440200
(3.860000) vcan0 1E4#00000000040A0200
(3.860000) vcan0 2E2#0000000000000200
(3.860000) vcan0 2E4#0F6C080800000200
(3.860000) vcan0 2E6#1056086600000200
(3.870000) vcan0 1EE#1B69085A0300
(3.870000) vcan0 4F0#01000000000000
(3.870000) vcan0 1F4#00000000440300
(3.870000) vcan0 1E4#00000000040A0300
