(1587955771.851058) vcan0 00000285#1DB01DB000000000
(1587955771.870932) vcan0 00000285#1DB01DB000000000
(1587955771.881718) vcan0 00000285#1CE81CE800000000
(1587955771.891638) vcan0 00000285#1CE81CE800000000
(1587955771.901739) vcan0 00000285#1CE81CE800000000
(1587955771.911870) vcan0 00000285#1C201C2000000000
(1587955771.922352) vcan0 00000285#1C201C2000000000
(1587955771.931905) vcan0 00000285#1C201C2000000000
(1587955771.941626) vcan0 00000285#1C201C2000000000
(1587955771.952152) vcan0 00000285#1C201C2000000000
(1587955771.962026) vcan0 00000285#1C201C2000000000
(1587955771.972349) vcan0 00000285#1C201C2000000000
(1587955771.983029) vcan0 00000285#1C201C2000000000
(1587955771.992508) vcan0 00000285#1C201C2000000000
(1587955772.002755) vcan0 00000285#1B581B5800000000
(1587955772.012671) vcan0 00000285#1B581B5800000000
(1587955772.022838) vcan0 00000285#1A901A9000000000
(1587955772.032938) vcan0 00000285#19C819C800000000
(1587955772.042957) vcan0 00000285#1838183800000000
(1587955772.053848) vcan0 00000285#16A816A800000000
(1587955772.063160) vcan0 00000285#1450145000000000
(1587955772.073288) vcan0 00000285#1388138800000000
(1587955772.083525) vcan0 00000285#11F811F800000000
(1587955772.093671) vcan0 00000285#1130113000000000
(1587955772.104519) vcan0 00000285#0FA00FA000000000
(1587955772.113905) vcan0 00000285#0ED80ED800000000
(1587955772.124075) vcan0 00000285#0ED80ED800000000
(1587955772.134395) vcan0 00000285#0E100E1000000000
(1587955772.144336) vcan0 00000285#0E100E1000000000
(1587955772.155058) vcan0 00000285#0D480D4800000000
(1587955772.164558) vcan0 00000285#0C800C8000000000
(1587955772.174755) vcan0 00000285#0C800C8000000000
(1587955772.184860) vcan0 00000285#0BB80BB800000000
(1587955772.195080) vcan0 00000285#0AF00AF000000000
(1587955772.205318) vcan0 00000285#0AF00AF000000000
(1587955772.215532) vcan0 00000285#0AF00AF000000000
(1587955772.225454) vcan0 00000285#0A280A2800000000
(1587955772.245673) vcan0 00000285#0A280A2800000000
(1587955772.255893) vcan0 00000285#0A280A2800000000
(1587955772.266083) vcan0 00000285#0960096000000000
(1587955772.276148) vcan0 00000285#0898089800000000
(1587955772.286409) vcan0 00000285#07D007D000000000
(1587955772.296236) vcan0 00000285#0708070800000000
(1587955772.306569) vcan0 00000285#0640064000000000
(1587955772.316861) vcan0 00000285#0640064000000000
(1587955772.326734) vcan0 00000285#0640064000000000
(1587955772.337496) vcan0 00000285#0578057800000000
(1587955772.347040) vcan0 00000285#0578057800000000
(1587955772.357267) vcan0 00000285#0578057800000000
(1587955772.367286) vcan0 00000285#04B004B000000000
(1587955772.377408) vcan0 00000285#04B004B000000000
(1587955772.388057) vcan0 00000285#03E803E800000000
(1587955772.397764) vcan0 00000285#0320032000000000
(1587955772.407887) vcan0 00000285#0258025800000000
(1587955772.417917) vcan0 00000285#0190019000000000
(1587955772.428186) vcan0 00000285#0190019000000000
(1587955772.438482) vcan0 00000285#00C800C800000000
(1587955772.448787) vcan0 00000285#00C800C800000000
(1587955772.458529) vcan0 00000285#00C800C800000000
(1587955772.468622) vcan0 00000285#00C800C800000000
(1587955772.478734) vcan0 00000285#0000000000000000
(1587955772.488826) vcan0 00000285#0000000000000000
(1587955772.499108) vcan0 00000285#0000000000000000
(1587955772.509148) vcan0 00000285#0000000000000000
(1587955772.519546) vcan0 00000285#0000000000000000
(1587955772.529489) vcan0 00000285#0000000000000000
(1587955772.539565) vcan0 00000285#0000000000000000
(1587955772.549664) vcan0 00000285#0000000000000000
(1587955772.559814) vcan0 00000285#0000000000000000
(1587955772.570215) vcan0 00000285#0000000000000000
(1587955772.600348) vcan0 00000285#0000000000000000
(1587955772.610471) vcan0 00000285#0000000000000000
(1587955772.621029) vcan0 00000285#0000000000000000
(1587955772.630939) vcan0 00000285#0000000000000000
(1587955772.640821) vcan0 00000285#0000000000000000
(1587955772.650920) vcan0 00000285#0000000000000000
(1587955772.661165) vcan0 00000285#0000000000000000
(1587955772.671500) vcan0 00000285#0000000000000000
(1587955772.681590) vcan0 00000285#0000000000000000
(1587955772.691548) vcan0 00000285#0000000000000000
(1587955772.702281) vcan0 00000285#0000000000000000
(1587955772.711823) vcan0 00000285#0000000000000000
(1587955772.722026) vcan0 00000285#0000000000000000
(1587955772.732324) vcan0 00000285#0000000000000000
(1587955772.742337) vcan0 00000285#0000000000000000
(1587955772.752687) vcan0 00000285#0000000000000000
(1587955772.762486) vcan0 00000285#0000000000000000
(1587955772.772846) vcan0 00000285#0000000000000000
(1587955772.783084) vcan0 00000285#0000000000000000
(1587955772.793045) vcan0 00000285#0000000000000000
(1587955772.813311) vcan0 00000285#0000000000000000
(1587955773.137512) vcan0 00000285#0000000000000000
(1587955773.147658) vcan0 00000285#0000000000000000
(1587955773.157849) vcan0 00000285#0000000000000000
(1587955773.168031) vcan0 00000285#0000000000000000
(1587955773.178275) vcan0 00000285#0000000000000000
(1587955773.188306) vcan0 00000285#0000000000000000
(1587955773.198766) vcan0 00000285#0000000000000000
(1587955773.208494) vcan0 00000285#0000000000000000
(1587955773.218612) vcan0 00000285#0000000000000000
(1587955773.228644) vcan0 00000285#0000000000000000
(1587955773.238894) vcan0 00000285#0000000000000000
(1587955773.249825) vcan0 00000285#0000000000000000
(1587955773.259238) vcan0 00000285#0000000000000000
(1587955773.269261) vcan0 00000285#0000000000000000
(1587955773.279391) vcan0 00000285#00C800C800000000
(1587955773.289451) vcan0 00000285#00C800C800000000
(1587955773.300334) vcan0 00000285#0190019000000000
(1587955773.310205) vcan0 00000285#0258025800000000
(1587955773.320029) vcan0 00000285#0320032000000000
(1587955773.330136) vcan0 00000285#03E803E800000000
(1587955773.340244) vcan0 00000285#0578057800000000
(1587955773.350757) vcan0 00000285#0640064000000000
(1587955773.360679) vcan0 00000285#0708070800000000
(1587955773.370667) vcan0 00000285#07D007D000000000
(1587955773.381573) vcan0 00000285#0898089800000000
(1587955773.390869) vcan0 00000285#0960096000000000
(1587955773.401277) vcan0 00000285#0960096000000000
(1587955773.411209) vcan0 00000285#0A280A2800000000
(1587955773.421294) vcan0 00000285#0A280A2800000000
(1587955773.431941) vcan0 00000285#0AF00AF000000000
(1587955773.441522) vcan0 00000285#0AF00AF000000000
(1587955773.451785) vcan0 00000285#0BB80BB800000000
(1587955773.461951) vcan0 00000285#0C800C8000000000
(1587955773.472090) vcan0 00000285#0C800C8000000000
(1587955773.482532) vcan0 00000285#0D480D4800000000
(1587955773.492355) vcan0 00000285#0E100E1000000000
(1587955773.502433) vcan0 00000285#0ED80ED800000000
(1587955773.512617) vcan0 00000285#0FA00FA000000000
(1587955773.522759) vcan0 00000285#1068106800000000
(1587955773.533246) vcan0 00000285#1130113000000000
(1587955773.543109) vcan0 00000285#1130113000000000
(1587955773.553165) vcan0 00000285#11F811F800000000
(1587955773.563201) vcan0 00000285#12C012C000000000
(1587955773.573396) vcan0 00000285#1388138800000000
(1587955773.583538) vcan0 00000285#1388138800000000
(1587955773.593982) vcan0 00000285#1388138800000000
(1587955773.603745) vcan0 00000285#1450145000000000
(1587955773.613946) vcan0 00000285#1450145000000000
(1587955773.624086) vcan0 00000285#1450145000000000
(1587955773.634379) vcan0 00000285#1518151800000000
(1587955773.644470) vcan0 00000285#1518151800000000
(1587955773.654507) vcan0 00000285#15E015E000000000
(1587955773.665158) vcan0 00000285#16A816A800000000
(1587955773.674804) vcan0 00000285#1770177000000000
(1587955773.685064) vcan0 00000285#1838183800000000
(1587955773.695243) vcan0 00000285#1900190000000000
(1587955773.705225) vcan0 00000285#19C819C800000000
(1587955773.715892) vcan0 00000285#1A901A9000000000
(1587955773.725518) vcan0 00000285#1B581B5800000000
(1587955773.735646) vcan0 00000285#1C201C2000000000
(1587955773.745687) vcan0 00000285#1DB01DB000000000
(1587955773.755847) vcan0 00000285#1E781E7800000000
(1587955773.766339) vcan0 00000285#1F401F4000000000
(1587955773.776500) vcan0 00000285#2008200800000000
(1587955773.786151) vcan0 00000285#20D020D000000000
(1587955773.796503) vcan0 00000285#20D020D000000000
(1587955773.806564) vcan0 00000285#2198219800000000
(1587955773.816841) vcan0 00000285#2260226000000000
(1587955773.827195) vcan0 00000285#2328232800000000
(1587955773.837008) vcan0 00000285#23F023F000000000
(1587955773.847499) vcan0 00000285#24B824B800000000
(1587955773.857253) vcan0 00000285#2580258000000000
(1587955773.867439) vcan0 00000285#2648264800000000
(1587955773.877589) vcan0 00000285#2710271000000000
(1587955773.887758) vcan0 00000285#27D827D800000000
(1587955773.898457) vcan0 00000285#28A028A000000000
(1587955773.907869) vcan0 00000285#2A302A3000000000
(1587955773.918157) vcan0 00000285#2BC02BC000000000
(1587955773.928253) vcan0 00000285#2C882C8800000000
(1587955773.939264) vcan0 00000285#2D502D5000000000
(1587955773.948802) vcan0 00000285#2EE02EE000000000
(1587955773.958584) vcan0 00000285#2FA82FA800000000
(1587955773.968846) vcan0 00000285#2FA82FA800000000
(1587955773.978959) vcan0 00000285#3070307000000000
(1587955773.989026) vcan0 00000285#3138313800000000
(1587955773.999584) vcan0 00000285#3200320000000000
(1587955774.009593) vcan0 00000285#3200320000000000
(1587955774.019323) vcan0 00000285#32C832C800000000
(1587955774.029493) vcan0 00000285#3390339000000000
(1587955774.039652) vcan0 00000285#3390339000000000
(1587955774.050183) vcan0 00000285#3458345800000000
(1587955774.060105) vcan0 00000285#3520352000000000
(1587955774.070104) vcan0 00000285#35E835E800000000
(1587955774.080501) vcan0 00000285#35E835E800000000
(1587955774.090293) vcan0 00000285#36B036B000000000
(1587955774.100436) vcan0 00000285#3840384000000000
(1587955774.110774) vcan0 00000285#3908390800000000
(1587955774.120685) vcan0 00000285#3908390800000000
(1587955774.131306) vcan0 00000285#3A983A9800000000
(1587955774.141060) vcan0 00000285#3A983A9800000000
(1587955774.151371) vcan0 00000285#3B603B6000000000
(1587955774.161282) vcan0 00000285#3C283C2800000000
(1587955774.171453) vcan0 00000285#3CF03CF000000000
(1587955774.181871) vcan0 00000285#3CF03CF000000000
(1587955774.191883) vcan0 00000285#3DB83DB800000000
(1587955774.201831) vcan0 00000285#3DB83DB800000000
(1587955774.211953) vcan0 00000285#3DB83DB800000000
(1587955774.222152) vcan0 00000285#3DB83DB800000000
(1587955774.232709) vcan0 00000285#3DB83DB800000000
(1587955774.242668) vcan0 00000285#3DB83DB800000000
(1587955774.252624) vcan0 00000285#3E803E8000000000
(1587955774.262600) vcan0 00000285#3E803E8000000000
(1587955774.282953) vcan0 00000285#3E803E8000000000
(1587955774.293383) vcan0 00000285#3E803E8000000000
(1587955774.303222) vcan0 00000285#3F483F4800000000
(1587955774.313938) vcan0 00000285#4010401000000000
(1587955774.323493) vcan0 00000285#40D840D800000000
(1587955774.333611) vcan0 00000285#4330433000000000
(1587955774.344023) vcan0 00000285#44C044C000000000
(1587955774.353954) vcan0 00000285#4588458800000000
(1587955774.364680) vcan0 00000285#4718471800000000
(1587955774.374231) vcan0 00000285#47E047E000000000
(1587955774.384396) vcan0 00000285#47E047E000000000
(1587955774.394474) vcan0 00000285#48A848A800000000
(1587955774.404594) vcan0 00000285#48A848A800000000
(1587955774.415344) vcan0 00000285#4970497000000000
(1587955774.424816) vcan0 00000285#4970497000000000
(1587955774.435109) vcan0 00000285#4970497000000000
(1587955774.860745) vcan0 00000285#4970497000000000
(1587955774.870833) vcan0 00000285#4970497000000000
(1587955774.881014) vcan0 00000285#4A384A3800000000
(1587955774.891084) vcan0 00000285#4BC84BC800000000
(1587955774.901309) vcan0 00000285#4C904C9000000000
(1587955774.911770) vcan0 00000285#4D584D5800000000
(1587955774.921634) vcan0 00000285#4E204E2000000000
(1587955774.931642) vcan0 00000285#4E204E2000000000
(1587955774.941696) vcan0 00000285#4E204E2000000000
(1587955774.951830) vcan0 00000285#4E204E2000000000
(1587955774.962120) vcan0 00000285#4E204E2000000000
(1587955774.972489) vcan0 00000285#4E204E2000000000
(1587955774.982119) vcan0 00000285#4E204E2000000000
(1587955774.992912) vcan0 00000285#4E204E2000000000
(1587955775.103832) vcan0 00000285#4E204E2000000000
(1587955775.114115) vcan0 00000285#4E204E2000000000
(1587955775.123976) vcan0 00000285#4E204E2000000000
(1587955775.144572) vcan0 00000285#4E204E2000000000
(1587955775.154521) vcan0 00000285#4E204E2000000000
(1587955775.164678) vcan0 00000285#4E204E2000000000
(1587955775.174762) vcan0 00000285#4E204E2000000000
(1587955775.184973) vcan0 00000285#4E204E2000000000
(1587955775.195479) vcan0 00000285#4E204E2000000000
(1587955775.205275) vcan0 00000285#4E204E2000000000
(1587955775.215248) vcan0 00000285#4E204E2000000000
(1587955775.225459) vcan0 00000285#4E204E2000000000
(1587955775.235520) vcan0 00000285#4E204E2000000000
(1587955775.245739) vcan0 00000285#4E204E2000000000
(1587955775.256099) vcan0 00000285#4E204E2000000000
(1587955775.346970) vcan0 00000285#4E204E2000000000
(1587955775.357525) vcan0 00000285#4E204E2000000000
(1587955775.367310) vcan0 00000285#4E204E2000000000
(1587955775.378208) vcan0 00000285#4E204E2000000000
(1587955775.387738) vcan0 00000285#4E204E2000000000
(1587955775.397839) vcan0 00000285#4E204E2000000000
(1587955775.407973) vcan0 00000285#4E204E2000000000
(1587955775.418024) vcan0 00000285#4E204E2000000000
(1587955775.428356) vcan0 00000285#4E204E2000000000
(1587955775.438467) vcan0 00000285#4C904C9000000000
(1587955775.448624) vcan0 00000285#4A384A3800000000
(1587955775.459096) vcan0 00000285#47E047E000000000
(1587955775.468603) vcan0 00000285#4650465000000000
(1587955775.478786) vcan0 00000285#44C044C000000000
(1587955775.489072) vcan0 00000285#4330433000000000
(1587955775.498944) vcan0 00000285#4268426800000000
(1587955775.510633) vcan0 00000285#40D840D800000000
(1587955775.519316) vcan0 00000285#4010401000000000
(1587955775.529743) vcan0 00000285#3F483F4800000000
(1587955775.539596) vcan0 00000285#3E803E8000000000
(1587955775.549771) vcan0 00000285#3E803E8000000000
(1587955775.560625) vcan0 00000285#3DB83DB800000000
(1587955775.570008) vcan0 00000285#3DB83DB800000000
(1587955775.580173) vcan0 00000285#3DB83DB800000000
(1587955775.590189) vcan0 00000285#3CF03CF000000000
(1587955775.600494) vcan0 00000285#3C283C2800000000
(1587955775.610896) vcan0 00000285#3C283C2800000000
(1587955775.620710) vcan0 00000285#3B603B6000000000
(1587955775.630809) vcan0 00000285#3A983A9800000000
(1587955775.640903) vcan0 00000285#39D039D000000000
(1587955775.651089) vcan0 00000285#39D039D000000000
(1587955775.661099) vcan0 00000285#3908390800000000
(1587955775.671694) vcan0 00000285#3908390800000000
(1587955775.681369) vcan0 00000285#3908390800000000
(1587955775.691814) vcan0 00000285#3908390800000000
(1587955775.701880) vcan0 00000285#3908390800000000
(1587955775.711952) vcan0 00000285#3840384000000000
(1587955775.722174) vcan0 00000285#3840384000000000
(1587955775.732119) vcan0 00000285#3778377800000000
(1587955775.742381) vcan0 00000285#36B036B000000000
(1587955775.752327) vcan0 00000285#36B036B000000000
(1587955775.762751) vcan0 00000285#35E835E800000000
(1587955775.772736) vcan0 00000285#35E835E800000000
(1587955775.782863) vcan0 00000285#3520352000000000
(1587955775.793183) vcan0 00000285#3520352000000000
(1587955775.803144) vcan0 00000285#3458345800000000
(1587955775.813316) vcan0 00000285#3390339000000000
(1587955775.823263) vcan0 00000285#32C832C800000000
(1587955775.833456) vcan0 00000285#3200320000000000
(1587955775.843640) vcan0 00000285#3138313800000000
(1587955775.853613) vcan0 00000285#3070307000000000
(1587955775.863963) vcan0 00000285#2FA82FA800000000
(1587955775.873898) vcan0 00000285#2FA82FA800000000
(1587955775.884088) vcan0 00000285#2FA82FA800000000
(1587955775.904835) vcan0 00000285#2FA82FA800000000
(1587955775.914423) vcan0 00000285#2EE02EE000000000
(1587955775.924777) vcan0 00000285#2EE02EE000000000
(1587955775.934690) vcan0 00000285#2EE02EE000000000
(1587955775.944922) vcan0 00000285#2E182E1800000000
(1587955775.955207) vcan0 00000285#2D502D5000000000
(1587955775.965046) vcan0 00000285#2D502D5000000000
(1587955775.975539) vcan0 00000285#2C882C8800000000
(1587955775.985438) vcan0 00000285#2BC02BC000000000
(1587955775.995577) vcan0 00000285#2AF82AF800000000
(1587955776.005854) vcan0 00000285#2AF82AF800000000
(1587955776.015885) vcan0 00000285#2A302A3000000000
(1587955776.026534) vcan0 00000285#28A028A000000000
(1587955776.036137) vcan0 00000285#27D827D800000000
(1587955776.046299) vcan0 00000285#2648264800000000
(1587955776.056451) vcan0 00000285#2580258000000000
(1587955776.066518) vcan0 00000285#24B824B800000000
(1587955776.077096) vcan0 00000285#24B824B800000000
(1587955776.086745) vcan0 00000285#24B824B800000000
(1587955776.096880) vcan0 00000285#23F023F000000000
(1587955776.107240) vcan0 00000285#2328232800000000
(1587955776.117307) vcan0 00000285#2328232800000000
(1587955776.127870) vcan0 00000285#2260226000000000
(1587955776.137757) vcan0 00000285#20D020D000000000
(1587955776.147572) vcan0 00000285#20D020D000000000
(1587955776.158071) vcan0 00000285#2008200800000000
(1587955776.167885) vcan0 00000285#2008200800000000
(1587955776.178196) vcan0 00000285#1F401F4000000000
(1587955776.188599) vcan0 00000285#1E781E7800000000
(1587955776.198321) vcan0 00000285#1E781E7800000000
(1587955776.208747) vcan0 00000285#1DB01DB000000000
(1587955776.218545) vcan0 00000285#1CE81CE800000000
(1587955776.228736) vcan0 00000285#1C201C2000000000
(1587955776.238951) vcan0 00000285#1A901A9000000000
(1587955776.249024) vcan0 00000285#1900190000000000
(1587955776.259210) vcan0 00000285#1770177000000000
(1587955776.269191) vcan0 00000285#15E015E000000000
(1587955776.279404) vcan0 00000285#1518151800000000
(1587955776.289522) vcan0 00000285#1450145000000000
(1587955776.299531) vcan0 00000285#1450145000000000
(1587955776.310304) vcan0 00000285#1450145000000000
(1587955776.319852) vcan0 00000285#1450145000000000
(1587955776.329977) vcan0 00000285#1388138800000000
(1587955776.350320) vcan0 00000285#1388138800000000
(1587955776.360817) vcan0 00000285#1388138800000000
(1587955776.370697) vcan0 00000285#1388138800000000
(1587955776.380692) vcan0 00000285#1388138800000000
(1587955776.390749) vcan0 00000285#1388138800000000
(1587955776.401175) vcan0 00000285#12C012C000000000
(1587955776.411304) vcan0 00000285#12C012C000000000
(1587955776.421291) vcan0 00000285#11F811F800000000
(1587955776.431441) vcan0 00000285#11F811F800000000
(1587955776.441557) vcan0 00000285#11F811F800000000
(1587955776.451710) vcan0 00000285#1130113000000000
(1587955776.461969) vcan0 00000285#1068106800000000
(1587955776.471977) vcan0 00000285#0FA00FA000000000
(1587955776.481941) vcan0 00000285#0ED80ED800000000
(1587955776.492891) vcan0 00000285#0ED80ED800000000
(1587955776.502247) vcan0 00000285#0E100E1000000000
(1587955776.512670) vcan0 00000285#0E100E1000000000
(1587955776.522628) vcan0 00000285#0D480D4800000000
(1587955776.532738) vcan0 00000285#0D480D4800000000
(1587955776.543257) vcan0 00000285#0C800C8000000000
(1587955776.552934) vcan0 00000285#0BB80BB800000000
(1587955776.563099) vcan0 00000285#0A280A2800000000
(1587955776.573160) vcan0 00000285#0960096000000000
(1587955776.583335) vcan0 00000285#0898089800000000
(1587955776.593982) vcan0 00000285#07D007D000000000
(1587955776.603683) vcan0 00000285#07D007D000000000
(1587955776.613837) vcan0 00000285#0708070800000000
(1587955776.623898) vcan0 00000285#0640064000000000
(1587955776.633931) vcan0 00000285#0640064000000000
(1587955776.645051) vcan0 00000285#0640064000000000
(1587955776.654646) vcan0 00000285#0640064000000000
(1587955776.674788) vcan0 00000285#0640064000000000
(1587955776.684620) vcan0 00000285#0578057800000000
(1587955776.694946) vcan0 00000285#0578057800000000
(1587955776.705105) vcan0 00000285#04B004B000000000
(1587955776.715020) vcan0 00000285#03E803E800000000
(1587955776.725616) vcan0 00000285#0320032000000000
(1587955776.735286) vcan0 00000285#0320032000000000
(1587955776.745534) vcan0 00000285#0258025800000000
(1587955776.755678) vcan0 00000285#0190019000000000
(1587955776.765670) vcan0 00000285#0190019000000000
(1587955776.776401) vcan0 00000285#00C800C800000000
(1587955776.785933) vcan0 00000285#0000000000000000
(1587955776.796328) vcan0 00000285#0000000000000000
(1587955776.806157) vcan0 00000285#0000000000000000
(1587955776.816304) vcan0 00000285#0000000000000000
(1587955776.826973) vcan0 00000285#0000000000000000
(1587955776.836561) vcan0 00000285#0000000000000000
(1587955776.846637) vcan0 00000285#0000000000000000
(1587955776.856784) vcan0 00000285#0000000000000000
(1587955776.867073) vcan0 00000285#0000000000000000
(1587955776.877571) vcan0 00000285#0000000000000000
(1587955776.887935) vcan0 00000285#0000000000000000
(1587955776.897315) vcan0 00000285#0000000000000000
(1587955776.908022) vcan0 00000285#0000000000000000
(1587955776.917679) vcan0 00000285#0000000000000000
(1587955776.928323) vcan0 00000285#0000000000000000
(1587955776.938654) vcan0 00000285#0000000000000000
(1587955776.948617) vcan0 00000285#0000000000000000
(1587955776.958871) vcan0 00000285#0000000000000000
(1587955776.969143) vcan0 00000285#0000000000000000
(1587955776.979232) vcan0 00000285#0000000000000000
(1587955776.989623) vcan0 00000285#0000000000000000
(1587955776.999343) vcan0 00000285#0000000000000000
(1587955777.009551) vcan0 00000285#0000000000000000
(1587955777.060711) vcan0 00000285#0000000000000000
(1587955777.070403) vcan0 00000285#0000000000000000
(1587955778.184880) vcan0 00000421#080000
(1587955779.786120) vcan0 0000060D#0800000000000000
(1587955779.786621) vcan0 00000358#0000060000000000
(1587955781.680509) vcan0 00000421#080000
(1587955783.647164) vcan0 0000060D#0000000000000000
(1587955784.843782) vcan0 00000358#0000020000000000
(1587955786.172848) vcan0 00000358#0000060000000000
(1587955787.045036) vcan0 00000358#0000020000000000
(1587955788.048781) vcan0 00000358#0000000000000000
